 (000.000000)  can0  7DF   [8]  02 01 0A 00 00 00 00 00
 (000.216970)  can0  7DF   [8]  02 01 0B 00 00 00 00 00
 (000.429640)  can0  7DF   [8]  02 01 0C 00 00 00 00 00
 (000.630319)  can0  7DF   [8]  02 01 0D 00 00 00 00 00
 (000.849568)  can0  7DF   [8]  02 01 0E 00 00 00 00 00
 (001.080172)  can0  7DF   [8]  02 01 0F 00 00 00 00 00
 (001.296575)  can0  7DF   [8]  02 01 10 00 00 00 00 00
 (001.512939)  can0  7DF   [8]  02 01 11 00 00 00 00 00
 (001.729952)  can0  7DF   [8]  02 01 1F 00 00 00 00 00
 (001.947513)  can0  7DF   [8]  02 01 21 00 00 00 00 00
 (002.167605)  can0  7DF   [8]  02 01 22 00 00 00 00 00
 (002.381161)  can0  7DF   [8]  02 01 23 00 00 00 00 00
 (002.593561)  can0  7DF   [8]  02 01 2C 00 00 00 00 00
 (002.810385)  can0  7DF   [8]  02 01 2D 00 00 00 00 00
 (003.044281)  can0  7DF   [8]  02 01 2F 00 00 00 00 00
 (003.235669)  can0  7DF   [8]  02 01 31 00 00 00 00 00
 (003.448656)  can0  7DF   [8]  02 01 33 00 00 00 00 00
 (003.677484)  can0  7DF   [8]  02 01 42 00 00 00 00 00
 (003.894962)  can0  7DF   [8]  02 01 43 00 00 00 00 00
 (004.106584)  can0  7DF   [8]  02 01 44 00 00 00 00 00
 (004.328424)  can0  7DF   [8]  02 01 46 00 00 00 00 00
 (004.526096)  can0  7DF   [8]  02 01 47 00 00 00 00 00
 (004.763096)  can0  7DF   [8]  02 01 4D 00 00 00 00 00
 (004.976347)  can0  7DF   [8]  02 01 4E 00 00 00 00 00
 (005.177017)  can0  7DF   [8]  02 01 51 00 00 00 00 00
 (005.408826)  can0  7DF   [8]  02 01 52 00 00 00 00 00
 (005.625793)  can0  7DF   [8]  02 01 59 00 00 00 00 00
 (005.853111)  can0  7DF   [8]  02 01 5B 00 00 00 00 00
 (006.068522)  can0  7DF   [8]  02 01 5C 00 00 00 00 00
 (006.254182)  can0  7DF   [8]  02 01 5D 00 00 00 00 00
 (006.492480)  can0  7DF   [8]  02 01 5E 00 00 00 00 00
 (006.707516)  can0  7DF   [8]  02 01 01 00 00 00 00 00
 (006.935472)  can0  7DF   [8]  02 01 04 00 00 00 00 00
 (007.121729)  can0  7DF   [8]  02 01 05 00 00 00 00 00
 (007.347382)  can0  7DF   [8]  02 01 06 00 00 00 00 00
 (007.572364)  can0  7DF   [8]  02 01 0A 00 00 00 00 00
 (007.789408)  can0  7DF   [8]  02 01 0B 00 00 00 00 00
 (008.007033)  can0  7DF   [8]  02 01 0C 00 00 00 00 00
 (008.205898)  can0  7DF   [8]  02 01 0D 00 00 00 00 00
 (008.419992)  can0  7DF   [8]  02 01 0E 00 00 00 00 00
 (008.660983)  can0  7DF   [8]  02 01 0F 00 00 00 00 00
 (008.879155)  can0  7DF   [8]  02 01 10 00 00 00 00 00
 (009.091368)  can0  7DF   [8]  02 01 11 00 00 00 00 00
 (009.307686)  can0  7DF   [8]  02 01 1F 00 00 00 00 00
 (009.524984)  can0  7DF   [8]  02 01 21 00 00 00 00 00
 (009.742182)  can0  7DF   [8]  02 01 22 00 00 00 00 00
 (009.960923)  can0  7DF   [8]  02 01 23 00 00 00 00 00
 (010.171026)  can0  7DF   [8]  02 01 2C 00 00 00 00 00
 (010.393697)  can0  7DF   [8]  02 01 2D 00 00 00 00 00
 (010.604437)  can0  7DF   [8]  02 01 2F 00 00 00 00 00
 (010.799640)  can0  7DF   [8]  02 01 31 00 00 00 00 00
 (011.017007)  can0  7DF   [8]  02 01 33 00 00 00 00 00
 (011.255451)  can0  7DF   [8]  02 01 42 00 00 00 00 00
 (011.473068)  can0  7DF   [8]  02 01 43 00 00 00 00 00
 (011.689033)  can0  7DF   [8]  02 01 44 00 00 00 00 00
 (011.902593)  can0  7DF   [8]  02 01 46 00 00 00 00 00
 (012.098368)  can0  7DF   [8]  02 01 47 00 00 00 00 00
 (012.335093)  can0  7DF   [8]  02 01 4D 00 00 00 00 00
 (012.552358)  can0  7DF   [8]  02 01 4E 00 00 00 00 00
 (012.749316)  can0  7DF   [8]  02 01 51 00 00 00 00 00
 (012.987008)  can0  7DF   [8]  02 01 52 00 00 00 00 00
 (013.202758)  can0  7DF   [8]  02 01 59 00 00 00 00 00
 (013.421029)  can0  7DF   [8]  02 01 5B 00 00 00 00 00
 (013.643337)  can0  7DF   [8]  02 01 5C 00 00 00 00 00
 (013.833049)  can0  7DF   [8]  02 01 5D 00 00 00 00 00
 (014.079016)  can0  7DF   [8]  02 01 5E 00 00 00 00 00
 (014.293882)  can0  7DF   [8]  02 01 01 00 00 00 00 00
 (014.504473)  can0  7DF   [8]  02 01 04 00 00 00 00 00
 (014.697892)  can0  7DF   [8]  02 01 05 00 00 00 00 00
 (014.915275)  can0  7DF   [8]  02 01 06 00 00 00 00 00
 (015.159406)  can0  7DF   [8]  02 01 0A 00 00 00 00 00
 (015.368031)  can0  7DF   [8]  02 01 0B 00 00 00 00 00
 (015.585332)  can0  7DF   [8]  02 01 0C 00 00 00 00 00
 (015.780594)  can0  7DF   [8]  02 01 0D 00 00 00 00 00
 (015.996366)  can0  7DF   [8]  02 01 0E 00 00 00 00 00
 (016.234606)  can0  7DF   [8]  02 01 0F 00 00 00 00 00
 (016.456695)  can0  7DF   [8]  02 01 10 00 00 00 00 00
 (016.678416)  can0  7DF   [8]  02 01 11 00 00 00 00 00
 (016.881376)  can0  7DF   [8]  02 01 1F 00 00 00 00 00
 (017.103103)  can0  7DF   [8]  02 01 21 00 00 00 00 00
 (017.319957)  can0  7DF   [8]  02 01 22 00 00 00 00 00
 (017.540411)  can0  7DF   [8]  02 01 23 00 00 00 00 00
 (017.749108)  can0  7DF   [8]  02 01 2C 00 00 00 00 00
 (017.975378)  can0  7DF   [8]  02 01 2D 00 00 00 00 00
 (018.182879)  can0  7DF   [8]  02 01 2F 00 00 00 00 00
 (018.378918)  can0  7DF   [8]  02 01 31 00 00 00 00 00
 (018.595853)  can0  7DF   [8]  02 01 33 00 00 00 00 00
 (018.834391)  can0  7DF   [8]  02 01 42 00 00 00 00 00
 (019.050888)  can0  7DF   [8]  02 01 43 00 00 00 00 00
 (019.281298)  can0  7DF   [8]  02 01 44 00 00 00 00 00
 (019.483623)  can0  7DF   [8]  02 01 46 00 00 00 00 00
 (019.678928)  can0  7DF   [8]  02 01 47 00 00 00 00 00
 (019.913525)  can0  7DF   [8]  02 01 4D 00 00 00 00 00
 (020.130202)  can0  7DF   [8]  02 01 4E 00 00 00 00 00
 (020.325773)  can0  7DF   [8]  02 01 51 00 00 00 00 00
 (020.573672)  can0  7DF   [8]  02 01 52 00 00 00 00 00
 (020.776644)  can0  7DF   [8]  02 01 59 00 00 00 00 00
 (020.998113)  can0  7DF   [8]  02 01 5B 00 00 00 00 00
 (021.214646)  can0  7DF   [8]  02 01 5C 00 00 00 00 00
 (021.409898)  can0  7DF   [8]  02 01 5D 00 00 00 00 00
 (021.651862)  can0  7DF   [8]  02 01 5E 00 00 00 00 00
 (021.877149)  can0  7DF   [8]  02 01 01 00 00 00 00 00
 (022.078069)  can0  7DF   [8]  02 01 04 00 00 00 00 00
 (022.274929)  can0  7DF   [8]  02 01 05 00 00 00 00 00
 (022.490777)  can0  7DF   [8]  02 01 06 00 00 00 00 00
 (022.729286)  can0  7DF   [8]  02 01 0A 00 00 00 00 00
 (022.949159)  can0  7DF   [8]  02 01 0B 00 00 00 00 00
 (023.176509)  can0  7DF   [8]  02 01 0C 00 00 00 00 00
 (023.379514)  can0  7DF   [8]  02 01 0D 00 00 00 00 00
 (023.572485)  can0  7DF   [8]  02 01 0E 00 00 00 00 00
 (023.808589)  can0  7DF   [8]  02 01 0F 00 00 00 00 00
 (024.025679)  can0  7DF   [8]  02 01 10 00 00 00 00 00
 (024.249690)  can0  7DF   [8]  02 01 11 00 00 00 00 00
 (024.473586)  can0  7DF   [8]  02 01 1F 00 00 00 00 00
 (024.675971)  can0  7DF   [8]  02 01 21 00 00 00 00 00
 (024.892508)  can0  7DF   [8]  02 01 22 00 00 00 00 00
 (025.105689)  can0  7DF   [8]  02 01 23 00 00 00 00 00
 (025.327110)  can0  7DF   [8]  02 01 2C 00 00 00 00 00
 (025.550146)  can0  7DF   [8]  02 01 2D 00 00 00 00 00
 (025.773960)  can0  7DF   [8]  02 01 2F 00 00 00 00 00
 (025.956611)  can0  7DF   [8]  02 01 31 00 00 00 00 00
 (026.170151)  can0  7DF   [8]  02 01 33 00 00 00 00 00
 (026.407230)  can0  7DF   [8]  02 01 42 00 00 00 00 00
 (026.630610)  can0  7DF   [8]  02 01 43 00 00 00 00 00
 (026.849184)  can0  7DF   [8]  02 01 44 00 00 00 00 00
 (027.061469)  can0  7DF   [8]  02 01 46 00 00 00 00 00
 (027.254021)  can0  7DF   [8]  02 01 47 00 00 00 00 00
 (027.491529)  can0  7DF   [8]  02 01 4D 00 00 00 00 00
 (027.703527)  can0  7DF   [8]  02 01 4E 00 00 00 00 00
 (027.903641)  can0  7DF   [8]  02 01 51 00 00 00 00 00
 (028.141384)  can0  7DF   [8]  02 01 52 00 00 00 00 00
 (028.354488)  can0  7DF   [8]  02 01 59 00 00 00 00 00
 (028.575206)  can0  7DF   [8]  02 01 5B 00 00 00 00 00
 (028.796658)  can0  7DF   [8]  02 01 5C 00 00 00 00 00
 (028.984227)  can0  7DF   [8]  02 01 5D 00 00 00 00 00
 (029.222488)  can0  7DF   [8]  02 01 5E 00 00 00 00 00
 (029.450321)  can0  7DF   [8]  02 01 01 00 00 00 00 00
 (029.668953)  can0  7DF   [8]  02 01 04 00 00 00 00 00
 (029.855134)  can0  7DF   [8]  02 01 05 00 00 00 00 00
 (030.067679)  can0  7DF   [8]  02 01 06 00 00 00 00 00
 (030.301770)  can0  7DF   [8]  02 01 0A 00 00 00 00 00
 (030.518120)  can0  7DF   [8]  02 01 0B 00 00 00 00 00
 (030.744410)  can0  7DF   [8]  02 01 0C 00 00 00 00 00
 (030.952559)  can0  7DF   [8]  02 01 0D 00 00 00 00 00
 (031.151126)  can0  7DF   [8]  02 01 0E 00 00 00 00 00
 (031.385695)  can0  7DF   [8]  02 01 0F 00 00 00 00 00
 (031.603143)  can0  7DF   [8]  02 01 10 00 00 00 00 00
 (031.820153)  can0  7DF   [8]  02 01 11 00 00 00 00 00
 (032.039251)  can0  7DF   [8]  02 01 1F 00 00 00 00 00
 (032.253288)  can0  7DF   [8]  02 01 21 00 00 00 00 00
 (032.473909)  can0  7DF   [8]  02 01 22 00 00 00 00 00
 (032.691841)  can0  7DF   [8]  02 01 23 00 00 00 00 00
 (032.900139)  can0  7DF   [8]  02 01 2C 00 00 00 00 00
 (033.116292)  can0  7DF   [8]  02 01 2D 00 00 00 00 00
 (033.333202)  can0  7DF   [8]  02 01 2F 00 00 00 00 00
 (033.529836)  can0  7DF   [8]  02 01 31 00 00 00 00 00
 (033.754155)  can0  7DF   [8]  02 01 33 00 00 00 00 00
 (033.979408)  can0  7DF   [8]  02 01 42 00 00 00 00 00
 (034.196892)  can0  7DF   [8]  02 01 43 00 00 00 00 00
 (034.413137)  can0  7DF   [8]  02 01 44 00 00 00 00 00
 (034.631422)  can0  7DF   [8]  02 01 46 00 00 00 00 00
 (034.844984)  can0  7DF   [8]  02 01 47 00 00 00 00 00
 (035.068582)  can0  7DF   [8]  02 01 4D 00 00 00 00 00
 (035.280784)  can0  7DF   [8]  02 01 4E 00 00 00 00 00
 (035.478638)  can0  7DF   [8]  02 01 51 00 00 00 00 00
 (035.714578)  can0  7DF   [8]  02 01 52 00 00 00 00 00
 (035.931560)  can0  7DF   [8]  02 01 59 00 00 00 00 00
 (036.143853)  can0  7DF   [8]  02 01 5B 00 00 00 00 00
 (036.366597)  can0  7DF   [8]  02 01 5C 00 00 00 00 00
 (036.558865)  can0  7DF   [8]  02 01 5D 00 00 00 00 00
 (036.799743)  can0  7DF   [8]  02 01 5E 00 00 00 00 00
 (037.013556)  can0  7DF   [8]  02 01 01 00 00 00 00 00
 (037.229734)  can0  7DF   [8]  02 01 04 00 00 00 00 00
 (037.424277)  can0  7DF   [8]  02 01 05 00 00 00 00 00
 (037.652069)  can0  7DF   [8]  02 01 06 00 00 00 00 00
 (037.874409)  can0  7DF   [8]  02 01 0A 00 00 00 00 00
 (038.091247)  can0  7DF   [8]  02 01 0B 00 00 00 00 00
 (038.308180)  can0  7DF   [8]  02 01 0C 00 00 00 00 00
 (038.505787)  can0  7DF   [8]  02 01 0D 00 00 00 00 00
 (038.722029)  can0  7DF   [8]  02 01 0E 00 00 00 00 00
 (038.968184)  can0  7DF   [8]  02 01 0F 00 00 00 00 00
 (039.171320)  can0  7DF   [8]  02 01 10 00 00 00 00 00
 (039.393175)  can0  7DF   [8]  02 01 11 00 00 00 00 00
 (039.605166)  can0  7DF   [8]  02 01 1F 00 00 00 00 00
 (039.822624)  can0  7DF   [8]  02 01 21 00 00 00 00 00
 (040.038793)  can0  7DF   [8]  02 01 22 00 00 00 00 00
 (040.264888)  can0  7DF   [8]  02 01 23 00 00 00 00 00
 (040.472627)  can0  7DF   [8]  02 01 2C 00 00 00 00 00
 (040.689541)  can0  7DF   [8]  02 01 2D 00 00 00 00 00
 (040.903051)  can0  7DF   [8]  02 01 2F 00 00 00 00 00
 (041.102625)  can0  7DF   [8]  02 01 31 00 00 00 00 00
 (041.318859)  can0  7DF   [8]  02 01 33 00 00 00 00 00
 (041.562805)  can0  7DF   [8]  02 01 42 00 00 00 00 00
 (041.773966)  can0  7DF   [8]  02 01 43 00 00 00 00 00
 (041.986306)  can0  7DF   [8]  02 01 44 00 00 00 00 00
 (042.203297)  can0  7DF   [8]  02 01 46 00 00 00 00 00
 (042.400498)  can0  7DF   [8]  02 01 47 00 00 00 00 00
 (042.633714)  can0  7DF   [8]  02 01 4D 00 00 00 00 00
 (042.853939)  can0  7DF   [8]  02 01 4E 00 00 00 00 00
 (043.055890)  can0  7DF   [8]  02 01 51 00 00 00 00 00
 (043.283204)  can0  7DF   [8]  02 01 52 00 00 00 00 00
 (043.501055)  can0  7DF   [8]  02 01 59 00 00 00 00 00
 (043.717009)  can0  7DF   [8]  02 01 5B 00 00 00 00 00
 (043.934198)  can0  7DF   [8]  02 01 5C 00 00 00 00 00
 (044.131338)  can0  7DF   [8]  02 01 5D 00 00 00 00 00
 (044.368821)  can0  7DF   [8]  02 01 5E 00 00 00 00 00
 (044.586683)  can0  7DF   [8]  02 01 01 00 00 00 00 00
 (044.803720)  can0  7DF   [8]  02 01 04 00 00 00 00 00
 (045.001636)  can0  7DF   [8]  02 01 05 00 00 00 00 00
 (045.213078)  can0  7DF   [8]  02 01 06 00 00 00 00 00
 (045.461421)  can0  7DF   [8]  02 01 0A 00 00 00 00 00
 (045.664503)  can0  7DF   [8]  02 01 0B 00 00 00 00 00
 (045.881287)  can0  7DF   [8]  02 01 0C 00 00 00 00 00
 (046.078300)  can0  7DF   [8]  02 01 0D 00 00 00 00 00
 (046.295836)  can0  7DF   [8]  02 01 0E 00 00 00 00 00
 (046.538707)  can0  7DF   [8]  02 01 0F 00 00 00 00 00
 (046.746845)  can0  7DF   [8]  02 01 10 00 00 00 00 00
 (046.971714)  can0  7DF   [8]  02 01 11 00 00 00 00 00
 (047.178226)  can0  7DF   [8]  02 01 1F 00 00 00 00 00
 (047.395081)  can0  7DF   [8]  02 01 21 00 00 00 00 00
 (047.611961)  can0  7DF   [8]  02 01 22 00 00 00 00 00
 (047.829316)  can0  7DF   [8]  02 01 23 00 00 00 00 00
 (048.043856)  can0  7DF   [8]  02 01 2C 00 00 00 00 00
 (048.267256)  can0  7DF   [8]  02 01 2D 00 00 00 00 00
 (048.474973)  can0  7DF   [8]  02 01 2F 00 00 00 00 00
 (048.675468)  can0  7DF   [8]  02 01 31 00 00 00 00 00
 (048.891564)  can0  7DF   [8]  02 01 33 00 00 00 00 00
 (049.125841)  can0  7DF   [8]  02 01 42 00 00 00 00 00
 (049.341589)  can0  7DF   [8]  02 01 43 00 00 00 00 00
 (049.560238)  can0  7DF   [8]  02 01 44 00 00 00 00 00
 (049.779934)  can0  7DF   [8]  02 01 46 00 00 00 00 00
 (049.979368)  can0  7DF   [8]  02 01 47 00 00 00 00 00
 (050.205739)  can0  7DF   [8]  02 01 4D 00 00 00 00 00
 (050.423521)  can0  7DF   [8]  02 01 4E 00 00 00 00 00
 (050.623100)  can0  7DF   [8]  02 01 51 00 00 00 00 00
 (050.870735)  can0  7DF   [8]  02 01 52 00 00 00 00 00
 (051.073271)  can0  7DF   [8]  02 01 59 00 00 00 00 00
 (051.286103)  can0  7DF   [8]  02 01 5B 00 00 00 00 00
 (051.503314)  can0  7DF   [8]  02 01 5C 00 00 00 00 00
 (051.704343)  can0  7DF   [8]  02 01 5D 00 00 00 00 00
 (051.941074)  can0  7DF   [8]  02 01 5E 00 00 00 00 00
 (052.156916)  can0  7DF   [8]  02 01 01 00 00 00 00 00
 (052.370486)  can0  7DF   [8]  02 01 04 00 00 00 00 00
 (052.570273)  can0  7DF   [8]  02 01 05 00 00 00 00 00
 (052.792806)  can0  7DF   [8]  02 01 06 00 00 00 00 00
 (053.021415)  can0  7DF   [8]  02 01 0A 00 00 00 00 00
 (053.240315)  can0  7DF   [8]  02 01 0B 00 00 00 00 00
 (053.459252)  can0  7DF   [8]  02 01 0C 00 00 00 00 00
 (053.652425)  can0  7DF   [8]  02 01 0D 00 00 00 00 00
 (053.868117)  can0  7DF   [8]  02 01 0E 00 00 00 00 00
 (054.101447)  can0  7DF   [8]  02 01 0F 00 00 00 00 00
 (054.317634)  can0  7DF   [8]  02 01 10 00 00 00 00 00
 (054.548809)  can0  7DF   [8]  02 01 11 00 00 00 00 00
 (054.748850)  can0  7DF   [8]  02 01 1F 00 00 00 00 00
 (054.973988)  can0  7DF   [8]  02 01 21 00 00 00 00 00
 (055.185141)  can0  7DF   [8]  02 01 22 00 00 00 00 00
 (055.402109)  can0  7DF   [8]  02 01 23 00 00 00 00 00
 (055.627756)  can0  7DF   [8]  02 01 2C 00 00 00 00 00
 (055.841362)  can0  7DF   [8]  02 01 2D 00 00 00 00 00
 (056.057396)  can0  7DF   [8]  02 01 2F 00 00 00 00 00
 (056.250800)  can0  7DF   [8]  02 01 31 00 00 00 00 00
 (056.465422)  can0  7DF   [8]  02 01 33 00 00 00 00 00
 (056.712911)  can0  7DF   [8]  02 01 42 00 00 00 00 00
 (056.915791)  can0  7DF   [8]  02 01 43 00 00 00 00 00
 (057.132722)  can0  7DF   [8]  02 01 44 00 00 00 00 00
 (057.349963)  can0  7DF   [8]  02 01 46 00 00 00 00 00
 (057.550309)  can0  7DF   [8]  02 01 47 00 00 00 00 00
 (057.783443)  can0  7DF   [8]  02 01 4D 00 00 00 00 00
 (058.000412)  can0  7DF   [8]  02 01 4E 00 00 00 00 00
 (058.197163)  can0  7DF   [8]  02 01 51 00 00 00 00 00
 (058.448830)  can0  7DF   [8]  02 01 52 00 00 00 00 00
 (058.649311)  can0  7DF   [8]  02 01 59 00 00 00 00 00
 (058.872514)  can0  7DF   [8]  02 01 5B 00 00 00 00 00
 (059.080244)  can0  7DF   [8]  02 01 5C 00 00 00 00 00
 (059.279694)  can0  7DF   [8]  02 01 5D 00 00 00 00 00
 (059.514104)  can0  7DF   [8]  02 01 5E 00 00 00 00 00
 (059.739328)  can0  7DF   [8]  02 01 01 00 00 00 00 00
 (059.947837)  can0  7DF   [8]  02 01 04 00 00 00 00 00
 (060.145750)  can0  7DF   [8]  02 01 05 00 00 00 00 00
 (060.361840)  can0  7DF   [8]  02 01 06 00 00 00 00 00
 (060.596354)  can0  7DF   [8]  02 01 0A 00 00 00 00 00
 (060.810811)  can0  7DF   [8]  02 01 0B 00 00 00 00 00
 (061.029066)  can0  7DF   [8]  02 01 0C 00 00 00 00 00
 (061.227845)  can0  7DF   [8]  02 01 0D 00 00 00 00 00
 (061.446472)  can0  7DF   [8]  02 01 0E 00 00 00 00 00
 (061.683067)  can0  7DF   [8]  02 01 0F 00 00 00 00 00
 (061.896459)  can0  7DF   [8]  02 01 10 00 00 00 00 00
 (062.107660)  can0  7DF   [8]  02 01 11 00 00 00 00 00
 (062.329208)  can0  7DF   [8]  02 01 1F 00 00 00 00 00
 (062.545096)  can0  7DF   [8]  02 01 21 00 00 00 00 00
 (062.767596)  can0  7DF   [8]  02 01 22 00 00 00 00 00
 (062.975331)  can0  7DF   [8]  02 01 23 00 00 00 00 00
 (063.192815)  can0  7DF   [8]  02 01 2C 00 00 00 00 00
 (063.409135)  can0  7DF   [8]  02 01 2D 00 00 00 00 00
 (063.626795)  can0  7DF   [8]  02 01 2F 00 00 00 00 00
 (063.826835)  can0  7DF   [8]  02 01 31 00 00 00 00 00
 (064.042334)  can0  7DF   [8]  02 01 33 00 00 00 00 00
 (064.276808)  can0  7DF   [8]  02 01 42 00 00 00 00 00
 (064.494665)  can0  7DF   [8]  02 01 43 00 00 00 00 00
 (064.711119)  can0  7DF   [8]  02 01 44 00 00 00 00 00
 (064.936865)  can0  7DF   [8]  02 01 46 00 00 00 00 00
 (065.121209)  can0  7DF   [8]  02 01 47 00 00 00 00 00
 (065.361168)  can0  7DF   [8]  02 01 4D 00 00 00 00 00
 (065.578413)  can0  7DF   [8]  02 01 4E 00 00 00 00 00
 (065.770367)  can0  7DF   [8]  02 01 51 00 00 00 00 00
 (066.007242)  can0  7DF   [8]  02 01 52 00 00 00 00 00
 (066.238573)  can0  7DF   [8]  02 01 59 00 00 00 00 00
 (066.442970)  can0  7DF   [8]  02 01 5B 00 00 00 00 00
 (066.671835)  can0  7DF   [8]  02 01 5C 00 00 00 00 00
 (066.853986)  can0  7DF   [8]  02 01 5D 00 00 00 00 00
 (067.091837)  can0  7DF   [8]  02 01 5E 00 00 00 00 00
 (067.312340)  can0  7DF   [8]  02 01 01 00 00 00 00 00
 (067.525707)  can0  7DF   [8]  02 01 04 00 00 00 00 00
 (067.720947)  can0  7DF   [8]  02 01 05 00 00 00 00 00
 (067.940753)  can0  7DF   [8]  02 01 06 00 00 00 00 00
 (068.180979)  can0  7DF   [8]  02 01 0A 00 00 00 00 00
 (068.389947)  can0  7DF   [8]  02 01 0B 00 00 00 00 00
 (068.605490)  can0  7DF   [8]  02 01 0C 00 00 00 00 00
 (068.801112)  can0  7DF   [8]  02 01 0D 00 00 00 00 00
 (069.018460)  can0  7DF   [8]  02 01 0E 00 00 00 00 00
 (069.261554)  can0  7DF   [8]  02 01 0F 00 00 00 00 00
 (069.482354)  can0  7DF   [8]  02 01 10 00 00 00 00 00
 (069.685463)  can0  7DF   [8]  02 01 11 00 00 00 00 00
 (069.907728)  can0  7DF   [8]  02 01 1F 00 00 00 00 00
 (070.123868)  can0  7DF   [8]  02 01 21 00 00 00 00 00
 (070.342246)  can0  7DF   [8]  02 01 22 00 00 00 00 00
 (070.562938)  can0  7DF   [8]  02 01 23 00 00 00 00 00
 (070.775226)  can0  7DF   [8]  02 01 2C 00 00 00 00 00
 (070.987626)  can0  7DF   [8]  02 01 2D 00 00 00 00 00
 (071.204381)  can0  7DF   [8]  02 01 2F 00 00 00 00 00
 (071.399945)  can0  7DF   [8]  02 01 31 00 00 00 00 00
 (071.615833)  can0  7DF   [8]  02 01 33 00 00 00 00 00
 (071.860086)  can0  7DF   [8]  02 01 42 00 00 00 00 00
 (072.076947)  can0  7DF   [8]  02 01 43 00 00 00 00 00
 (072.284507)  can0  7DF   [8]  02 01 44 00 00 00 00 00
 (072.501445)  can0  7DF   [8]  02 01 46 00 00 00 00 00
 (072.697979)  can0  7DF   [8]  02 01 47 00 00 00 00 00
 (072.937415)  can0  7DF   [8]  02 01 4D 00 00 00 00 00
 (073.159614)  can0  7DF   [8]  02 01 4E 00 00 00 00 00
 (073.346074)  can0  7DF   [8]  02 01 51 00 00 00 00 00
 (073.585616)  can0  7DF   [8]  02 01 52 00 00 00 00 00
 (073.802038)  can0  7DF   [8]  02 01 59 00 00 00 00 00
 (074.019027)  can0  7DF   [8]  02 01 5B 00 00 00 00 00
 (074.247794)  can0  7DF   [8]  02 01 5C 00 00 00 00 00
 (074.428806)  can0  7DF   [8]  02 01 5D 00 00 00 00 00
 (074.675419)  can0  7DF   [8]  02 01 5E 00 00 00 00 00
 (074.884412)  can0  7DF   [8]  02 01 01 00 00 00 00 00
 (075.104140)  can0  7DF   [8]  02 01 04 00 00 00 00 00
 (075.295754)  can0  7DF   [8]  02 01 05 00 00 00 00 00
 (075.513110)  can0  7DF   [8]  02 01 06 00 00 00 00 00
 (075.748537)  can0  7DF   [8]  02 01 0A 00 00 00 00 00
 (075.971779)  can0  7DF   [8]  02 01 0B 00 00 00 00 00
 (076.184019)  can0  7DF   [8]  02 01 0C 00 00 00 00 00
 (076.378154)  can0  7DF   [8]  02 01 0D 00 00 00 00 00
 (076.594932)  can0  7DF   [8]  02 01 0E 00 00 00 00 00
 (076.829919)  can0  7DF   [8]  02 01 0F 00 00 00 00 00
 (077.049872)  can0  7DF   [8]  02 01 10 00 00 00 00 00
 (077.277802)  can0  7DF   [8]  02 01 11 00 00 00 00 00
 (077.480981)  can0  7DF   [8]  02 01 1F 00 00 00 00 00
 (077.692404)  can0  7DF   [8]  02 01 21 00 00 00 00 00
 (077.914683)  can0  7DF   [8]  02 01 22 00 00 00 00 00
 (078.143875)  can0  7DF   [8]  02 01 23 00 00 00 00 00
 (078.351417)  can0  7DF   [8]  02 01 2C 00 00 00 00 00
 (220.267682)  can0  7DF   [8]  02 01 00 00 00 00 00 00
 (220.331111)  can0  7DF   [8]  02 01 00 00 00 00 00 00
 (220.547330)  can0  7DF   [8]  02 01 20 00 00 00 00 00
 (220.764638)  can0  7DF   [8]  02 01 40 00 00 00 00 00
 (220.979690)  can0  7DF   [8]  02 01 60 00 00 00 00 00
 (221.198188)  can0  7DF   [8]  02 01 80 00 00 00 00 00
 (221.411248)  can0  7DF   [8]  02 01 A0 00 00 00 00 00
 (221.649398)  can0  7DF   [8]  02 01 1F 00 00 00 00 00
 (221.865595)  can0  7DF   [8]  02 01 5B 00 00 00 00 00
 (222.082125)  can0  7DF   [8]  02 01 5D 00 00 00 00 00
 (222.299039)  can0  7DF   [8]  01 03 00 00 00 00 00 00
 (222.650251)  can0  7DF   [8]  02 01 1F 00 00 00 00 00
 (222.723559)  can0  7DF   [8]  02 01 5B 00 00 00 00 00
 (222.949911)  can0  7DF   [8]  02 01 5D 00 00 00 00 00
 (223.650999)  can0  7DF   [8]  02 01 1F 00 00 00 00 00
 (223.812619)  can0  7DF   [8]  02 01 5B 00 00 00 00 00
 (224.029043)  can0  7DF   [8]  02 01 5D 00 00 00 00 00
 (224.652966)  can0  7DF   [8]  02 01 1F 00 00 00 00 00
 (224.888339)  can0  7DF   [8]  02 01 5B 00 00 00 00 00
 (225.114564)  can0  7DF   [8]  02 01 5D 00 00 00 00 00
 (225.654456)  can0  7DF   [8]  02 01 1F 00 00 00 00 00
 (225.760636)  can0  7DF   [8]  02 01 5B 00 00 00 00 00
 (225.981967)  can0  7DF   [8]  02 01 5D 00 00 00 00 00
 (226.655427)  can0  7DF   [8]  02 01 1F 00 00 00 00 00
 (226.845212)  can0  7DF   [8]  02 01 5B 00 00 00 00 00
 (227.061114)  can0  7DF   [8]  02 01 5D 00 00 00 00 00
 (227.665256)  can0  7DF   [8]  02 01 1F 00 00 00 00 00
 (227.740335)  can0  7DF   [8]  02 01 5B 00 00 00 00 00
 (227.924307)  can0  7DF   [8]  02 01 5D 00 00 00 00 00
 (228.662899)  can0  7DF   [8]  02 01 1F 00 00 00 00 00
 (228.783275)  can0  7DF   [8]  02 01 5B 00 00 00 00 00
 (229.009272)  can0  7DF   [8]  02 01 5D 00 00 00 00 00
 (229.664151)  can0  7DF   [8]  02 01 1F 00 00 00 00 00
 (229.881686)  can0  7DF   [8]  02 01 5B 00 00 00 00 00
 (230.105697)  can0  7DF   [8]  02 01 5D 00 00 00 00 00
 (230.670306)  can0  7DF   [8]  02 01 1F 00 00 00 00 00
 (230.748797)  can0  7DF   [8]  02 01 5B 00 00 00 00 00
 (230.965948)  can0  7DF   [8]  02 01 5D 00 00 00 00 00
 (231.676438)  can0  7DF   [8]  02 01 1F 00 00 00 00 00
 (231.819244)  can0  7DF   [8]  02 01 5B 00 00 00 00 00
 (232.045276)  can0  7DF   [8]  02 01 5D 00 00 00 00 00
 (232.682329)  can0  7DF   [8]  02 01 1F 00 00 00 00 00
 (232.909085)  can0  7DF   [8]  02 01 5B 00 00 00 00 00
 (233.125173)  can0  7DF   [8]  02 01 5D 00 00 00 00 00
 (233.683867)  can0  7DF   [8]  02 01 1F 00 00 00 00 00
 (233.771498)  can0  7DF   [8]  02 01 5B 00 00 00 00 00
 (233.994247)  can0  7DF   [8]  02 01 5D 00 00 00 00 00
 (234.685729)  can0  7DF   [8]  02 01 1F 00 00 00 00 00
 (234.853751)  can0  7DF   [8]  02 01 5B 00 00 00 00 00
 (235.077337)  can0  7DF   [8]  02 01 5D 00 00 00 00 00
 (235.691330)  can0  7DF   [8]  02 01 1F 00 00 00 00 00
 (235.931110)  can0  7DF   [8]  02 01 5B 00 00 00 00 00
 (236.171124)  can0  7DF   [8]  02 01 5D 00 00 00 00 00
 (236.692921)  can0  7DF   [8]  02 01 1F 00 00 00 00 00
 (236.798831)  can0  7DF   [8]  02 01 5B 00 00 00 00 00
 (237.020212)  can0  7DF   [8]  02 01 5D 00 00 00 00 00
 (237.696474)  can0  7DF   [8]  02 01 1F 00 00 00 00 00
 (237.887931)  can0  7DF   [8]  02 01 5B 00 00 00 00 00
 (238.105981)  can0  7DF   [8]  02 01 5D 00 00 00 00 00
 (238.701177)  can0  7DF   [8]  02 01 1F 00 00 00 00 00
 (238.779055)  can0  7DF   [8]  02 01 5B 00 00 00 00 00
 (238.973191)  can0  7DF   [8]  02 01 5D 00 00 00 00 00
 (239.707312)  can0  7DF   [8]  02 01 1F 00 00 00 00 00
 (239.831821)  can0  7DF   [8]  02 01 5B 00 00 00 00 00
 (240.052561)  can0  7DF   [8]  02 01 5D 00 00 00 00 00
 (240.712929)  can0  7DF   [8]  02 01 1F 00 00 00 00 00
 (240.921312)  can0  7DF   [8]  02 01 5B 00 00 00 00 00
 (241.149412)  can0  7DF   [8]  02 01 5D 00 00 00 00 00
 (241.714492)  can0  7DF   [8]  02 01 1F 00 00 00 00 00
 (241.792247)  can0  7DF   [8]  02 01 5B 00 00 00 00 00
 (242.004757)  can0  7DF   [8]  02 01 5D 00 00 00 00 00
 (242.715661)  can0  7DF   [8]  02 01 1F 00 00 00 00 00
 (242.877559)  can0  7DF   [8]  02 01 5B 00 00 00 00 00
 (243.084415)  can0  7DF   [8]  02 01 5D 00 00 00 00 00
 (243.717386)  can0  7DF   [8]  02 01 1F 00 00 00 00 00
 (243.952030)  can0  7DF   [8]  02 01 5B 00 00 00 00 00
 (244.169546)  can0  7DF   [8]  02 01 5D 00 00 00 00 00
 (244.718530)  can0  7DF   [8]  02 01 1F 00 00 00 00 00
 (244.806120)  can0  7DF   [8]  02 01 5B 00 00 00 00 00
 (245.046657)  can0  7DF   [8]  02 01 5D 00 00 00 00 00
 (245.720323)  can0  7DF   [8]  02 01 1F 00 00 00 00 00
 (245.895567)  can0  7DF   [8]  02 01 5B 00 00 00 00 00
 (246.112729)  can0  7DF   [8]  02 01 5D 00 00 00 00 00
