 (000.000000)  can0  7DF   [8]  02 01 00 00 00 00 00 00
 (000.000277)  can0  7E8   [8]  06 41 00 FF FF FF FF 00
 (000.250226)  can0  7DF   [8]  02 01 00 00 00 00 00 00
 (000.250481)  can0  7E8   [8]  06 41 00 FF FF FF FF 00
 (000.313916)  can0  7DF   [8]  02 01 00 00 00 00 00 00
 (000.314105)  can0  7E8   [8]  06 41 00 FF FF FF FF 00
 (000.369758)  can0  7DF   [8]  02 01 20 00 00 00 00 00
 (000.369990)  can0  7E8   [8]  06 41 20 FF FF FF FF 00
 (000.426565)  can0  7DF   [8]  02 01 40 00 00 00 00 00
 (000.426928)  can0  7E8   [8]  06 41 40 FF FF FF FF 00
 (000.482782)  can0  7DF   [8]  02 01 60 00 00 00 00 00
 (000.483081)  can0  7E8   [8]  06 41 60 FF FF FF FF 00
 (000.538860)  can0  7DF   [8]  02 01 80 00 00 00 00 00
 (000.740053)  can0  7DF   [8]  02 01 80 00 00 00 00 00
 (000.946228)  can0  7DF   [8]  02 01 A0 00 00 00 00 00
 (001.147114)  can0  7DF   [8]  02 01 A0 00 00 00 00 00
 (001.359460)  can0  7DF   [8]  07 01 0C 0D 01 04 05 06
 (001.359742)  can0  7E8   [8]  04 41 0C 11 08 00 00 00
 (001.415856)  can0  7DF   [8]  02 01 0C 00 00 00 00 00
 (001.416125)  can0  7E8   [8]  04 41 0C 11 08 00 00 00
 (001.471683)  can0  7DF   [8]  07 01 0C 0D 01 04 05 06
 (001.471931)  can0  7E8   [8]  04 41 0C 11 08 00 00 00
 (001.528028)  can0  7DF   [8]  02 01 01 00 00 00 00 00
 (001.528315)  can0  7E8   [8]  06 41 01 00 00 07 0F 00
 (001.603120)  can0  7DF   [8]  02 01 04 00 00 00 00 00
 (001.603423)  can0  7E8   [8]  03 41 04 7F 00 00 00 00
 (001.676952)  can0  7DF   [8]  02 01 05 00 00 00 00 00
 (001.677274)  can0  7E8   [8]  03 41 05 00 00 00 00 00
 (001.755549)  can0  7DF   [8]  02 01 06 00 00 00 00 00
 (001.755745)  can0  7E8   [8]  04 41 06 00 00 00 00 00
 (001.834298)  can0  7DF   [8]  02 01 0A 00 00 00 00 00
 (001.834550)  can0  7E8   [8]  03 41 0A 00 00 00 00 00
 (001.912533)  can0  7DF   [8]  02 01 0B 00 00 00 00 00
 (001.912718)  can0  7E8   [8]  03 41 0B 00 00 00 00 00
 (001.991057)  can0  7DF   [8]  02 01 0D 00 00 00 00 00
 (001.991264)  can0  7E8   [8]  03 41 0D 46 00 00 00 00
 (002.064095)  can0  7DF   [8]  02 01 0E 00 00 00 00 00
 (002.064438)  can0  7E8   [8]  03 41 0E 00 00 00 00 00
 (002.138553)  can0  7DF   [8]  02 01 0F 00 00 00 00 00
 (002.138825)  can0  7E8   [8]  03 41 0F 00 00 00 00 00
 (002.225677)  can0  7DF   [8]  02 01 10 00 00 00 00 00
 (002.225934)  can0  7E8   [8]  04 41 10 00 00 00 00 00
 (002.306340)  can0  7DF   [8]  02 01 1F 00 00 00 00 00
 (002.306617)  can0  7E8   [8]  04 41 1F 00 00 00 00 00
 (002.382642)  can0  7DF   [8]  02 01 21 00 00 00 00 00
 (002.382860)  can0  7E8   [8]  04 41 21 00 00 00 00 00
 (002.456678)  can0  7DF   [8]  02 01 22 00 00 00 00 00
 (002.456961)  can0  7E8   [8]  04 41 22 00 00 00 00 00
 (002.534803)  can0  7DF   [8]  02 01 23 00 00 00 00 00
 (002.535074)  can0  7E8   [8]  04 41 23 00 00 00 00 00
 (002.613741)  can0  7DF   [8]  02 01 2C 00 00 00 00 00
 (002.614006)  can0  7E8   [8]  03 41 2C 00 00 00 00 00
 (002.691774)  can0  7DF   [8]  02 01 2D 00 00 00 00 00
 (002.691976)  can0  7E8   [8]  03 41 2D 00 00 00 00 00
 (002.766039)  can0  7DF   [8]  02 01 2F 00 00 00 00 00
 (002.766320)  can0  7E8   [8]  03 41 2F BF 00 00 00 00
 (002.844035)  can0  7DF   [8]  02 01 31 00 00 00 00 00
 (002.844303)  can0  7E8   [8]  04 41 31 00 00 00 00 00
 (002.918686)  can0  7DF   [8]  02 01 33 00 00 00 00 00
 (002.918990)  can0  7E8   [8]  03 41 33 00 00 00 00 00
 (003.000999)  can0  7DF   [8]  02 01 42 00 00 00 00 00
 (003.001268)  can0  7E8   [8]  04 41 42 00 00 00 00 00
 (003.084916)  can0  7DF   [8]  02 01 43 00 00 00 00 00
 (003.085169)  can0  7E8   [8]  04 41 43 00 7F 00 00 00
 (003.158325)  can0  7DF   [8]  02 01 46 00 00 00 00 00
 (003.158596)  can0  7E8   [8]  03 41 46 00 00 00 00 00
 (003.236371)  can0  7DF   [8]  02 01 4D 00 00 00 00 00
 (003.236634)  can0  7E8   [8]  04 41 4D 00 00 00 00 00
 (003.310822)  can0  7DF   [8]  02 01 4E 00 00 00 00 00
 (003.311023)  can0  7E8   [8]  04 41 4E 00 00 00 00 00
 (003.397785)  can0  7DF   [8]  02 01 51 00 00 00 00 00
 (003.398118)  can0  7E8   [8]  03 41 51 01 00 00 00 00
 (003.478417)  can0  7DF   [8]  02 01 59 00 00 00 00 00
 (003.478702)  can0  7E8   [8]  04 41 59 00 00 00 00 00
 (003.554787)  can0  7DF   [8]  02 01 5B 00 00 00 00 00
 (003.555051)  can0  7E8   [8]  03 41 5B 00 00 00 00 00
 (003.629170)  can0  7DF   [8]  02 01 5C 00 00 00 00 00
 (003.629373)  can0  7E8   [8]  03 41 5C 00 00 00 00 00
 (003.702331)  can0  7DF   [8]  02 01 5D 00 00 00 00 00
 (003.702595)  can0  7E8   [8]  04 41 5D 00 00 00 00 00
 (003.790091)  can0  7DF   [8]  02 01 5E 00 00 00 00 00
 (003.790386)  can0  7E8   [8]  04 41 5E 00 91 00 00 00
 (003.865082)  can0  7DF   [8]  01 03 00 00 00 00 00 00
 (003.865334)  can0  7E8   [8]  02 43 00 00 00 00 00 00
 (003.921960)  can0  7DF   [8]  02 01 01 00 00 00 00 00
 (003.922181)  can0  7E8   [8]  06 41 01 00 00 07 0F 00
 (003.997740)  can0  7DF   [8]  02 01 04 00 00 00 00 00
 (003.997995)  can0  7E8   [8]  03 41 04 7F 00 00 00 00
 (004.077076)  can0  7DF   [8]  02 01 05 00 00 00 00 00
 (004.077274)  can0  7E8   [8]  03 41 05 00 00 00 00 00
 (004.154668)  can0  7DF   [8]  02 01 06 00 00 00 00 00
 (004.154926)  can0  7E8   [8]  04 41 06 00 00 00 00 00
 (004.229449)  can0  7DF   [8]  02 01 0A 00 00 00 00 00
 (004.229777)  can0  7E8   [8]  03 41 0A 00 00 00 00 00
 (004.307005)  can0  7DF   [8]  02 01 0B 00 00 00 00 00
 (004.307268)  can0  7E8   [8]  03 41 0B 00 00 00 00 00
 (004.381734)  can0  7DF   [8]  02 01 0C 00 00 00 00 00
 (004.381963)  can0  7E8   [8]  04 41 0C 11 08 00 00 00
 (004.468472)  can0  7DF   [8]  02 01 0D 00 00 00 00 00
 (004.468702)  can0  7E8   [8]  03 41 0D 46 00 00 00 00
 (004.548765)  can0  7DF   [8]  02 01 0E 00 00 00 00 00
 (004.549064)  can0  7E8   [8]  03 41 0E 00 00 00 00 00
 (004.625342)  can0  7DF   [8]  02 01 0F 00 00 00 00 00
 (004.625644)  can0  7E8   [8]  03 41 0F 00 00 00 00 00
 (004.699777)  can0  7DF   [8]  02 01 10 00 00 00 00 00
 (004.700065)  can0  7E8   [8]  04 41 10 00 00 00 00 00
 (004.773145)  can0  7DF   [8]  02 01 1F 00 00 00 00 00
 (004.773425)  can0  7E8   [8]  04 41 1F 00 00 00 00 00
 (004.857059)  can0  7DF   [8]  02 01 21 00 00 00 00 00
 (004.857276)  can0  7E8   [8]  04 41 21 00 00 00 00 00
 (004.933608)  can0  7DF   [8]  02 01 22 00 00 00 00 00
 (004.933919)  can0  7E8   [8]  04 41 22 00 00 00 00 00
 (005.009017)  can0  7DF   [8]  02 01 23 00 00 00 00 00
 (005.009179)  can0  7E8   [8]  04 41 23 00 00 00 00 00
 (005.087566)  can0  7DF   [8]  02 01 2C 00 00 00 00 00
 (005.087849)  can0  7E8   [8]  03 41 2C 00 00 00 00 00
 (005.166448)  can0  7DF   [8]  02 01 2D 00 00 00 00 00
 (005.166760)  can0  7E8   [8]  03 41 2D 00 00 00 00 00
 (005.244614)  can0  7DF   [8]  02 01 2F 00 00 00 00 00
 (005.244873)  can0  7E8   [8]  03 41 2F BF 00 00 00 00
 (005.323247)  can0  7DF   [8]  02 01 31 00 00 00 00 00
 (005.323510)  can0  7E8   [8]  04 41 31 00 00 00 00 00
 (005.396884)  can0  7DF   [8]  02 01 33 00 00 00 00 00
 (005.397120)  can0  7E8   [8]  03 41 33 00 00 00 00 00
 (005.474568)  can0  7DF   [8]  02 01 42 00 00 00 00 00
 (005.474953)  can0  7E8   [8]  04 41 42 00 00 00 00 00
 (005.549184)  can0  7DF   [8]  02 01 43 00 00 00 00 00
 (005.549451)  can0  7E8   [8]  04 41 43 00 7F 00 00 00
 (005.636108)  can0  7DF   [8]  02 01 46 00 00 00 00 00
 (005.636375)  can0  7E8   [8]  03 41 46 00 00 00 00 00
 (005.715774)  can0  7DF   [8]  02 01 4D 00 00 00 00 00
 (005.715973)  can0  7E8   [8]  04 41 4D 00 00 00 00 00
 (005.793051)  can0  7DF   [8]  02 01 4E 00 00 00 00 00
 (005.793325)  can0  7E8   [8]  04 41 4E 00 00 00 00 00
 (005.867364)  can0  7DF   [8]  02 01 51 00 00 00 00 00
 (005.867626)  can0  7E8   [8]  03 41 51 01 00 00 00 00
 (005.940669)  can0  7DF   [8]  02 01 59 00 00 00 00 00
 (005.940943)  can0  7E8   [8]  04 41 59 00 00 00 00 00
 (006.024429)  can0  7DF   [8]  02 01 5B 00 00 00 00 00
 (006.024658)  can0  7E8   [8]  03 41 5B 00 00 00 00 00
 (006.101328)  can0  7DF   [8]  02 01 5C 00 00 00 00 00
 (006.101604)  can0  7E8   [8]  03 41 5C 00 00 00 00 00
 (006.177031)  can0  7DF   [8]  02 01 5D 00 00 00 00 00
 (006.177192)  can0  7E8   [8]  04 41 5D 00 00 00 00 00
 (006.249871)  can0  7DF   [8]  02 01 5E 00 00 00 00 00
 (006.250123)  can0  7E8   [8]  04 41 5E 00 91 00 00 00
 (006.325369)  can0  7DF   [8]  02 01 01 00 00 00 00 00
 (006.325623)  can0  7E8   [8]  06 41 01 00 00 07 0F 00
 (006.397602)  can0  7DF   [8]  02 01 04 00 00 00 00 00
 (006.397958)  can0  7E8   [8]  03 41 04 7F 00 00 00 00
 (006.471438)  can0  7DF   [8]  02 01 05 00 00 00 00 00
 (006.471702)  can0  7E8   [8]  03 41 05 00 00 00 00 00
 (006.545223)  can0  7DF   [8]  02 01 06 00 00 00 00 00
 (006.545482)  can0  7E8   [8]  04 41 06 00 00 00 00 00
 (006.620273)  can0  7DF   [8]  02 01 0A 00 00 00 00 00
 (006.620514)  can0  7E8   [8]  03 41 0A 00 00 00 00 00
 (006.706855)  can0  7DF   [8]  02 01 0B 00 00 00 00 00
 (006.707093)  can0  7E8   [8]  03 41 0B 00 00 00 00 00
 (006.781259)  can0  7DF   [8]  02 01 0C 00 00 00 00 00
 (006.781530)  can0  7E8   [8]  04 41 0C 11 08 00 00 00
 (006.854981)  can0  7DF   [8]  02 01 0D 00 00 00 00 00
 (006.855262)  can0  7E8   [8]  03 41 0D 46 00 00 00 00
 (006.928350)  can0  7DF   [8]  02 01 0E 00 00 00 00 00
 (006.928584)  can0  7E8   [8]  03 41 0E 00 00 00 00 00
 (007.002251)  can0  7DF   [8]  02 01 0F 00 00 00 00 00
 (007.002515)  can0  7E8   [8]  03 41 0F 00 00 00 00 00
 (007.077270)  can0  7DF   [8]  02 01 10 00 00 00 00 00
 (007.077478)  can0  7E8   [8]  04 41 10 00 00 00 00 00
 (007.154672)  can0  7DF   [8]  02 01 1F 00 00 00 00 00
 (007.154927)  can0  7E8   [8]  04 41 1F 00 00 00 00 00
 (007.228721)  can0  7DF   [8]  02 01 21 00 00 00 00 00
 (007.229018)  can0  7E8   [8]  04 41 21 00 00 00 00 00
 (007.306699)  can0  7DF   [8]  02 01 22 00 00 00 00 00
 (007.306973)  can0  7E8   [8]  04 41 22 00 00 00 00 00
 (007.386193)  can0  7DF   [8]  02 01 23 00 00 00 00 00
 (007.386455)  can0  7E8   [8]  04 41 23 00 00 00 00 00
 (007.463618)  can0  7DF   [8]  02 01 2C 00 00 00 00 00
 (007.463929)  can0  7E8   [8]  03 41 2C 00 00 00 00 00
 (007.538271)  can0  7DF   [8]  02 01 2D 00 00 00 00 00
 (007.538543)  can0  7E8   [8]  03 41 2D 00 00 00 00 00
 (007.611334)  can0  7DF   [8]  02 01 2F 00 00 00 00 00
 (007.611596)  can0  7E8   [8]  03 41 2F BF 00 00 00 00
 (007.685747)  can0  7DF   [8]  02 01 31 00 00 00 00 00
 (007.686037)  can0  7E8   [8]  04 41 31 00 00 00 00 00
 (007.763604)  can0  7DF   [8]  02 01 33 00 00 00 00 00
 (007.763943)  can0  7E8   [8]  03 41 33 00 00 00 00 00
 (007.837896)  can0  7DF   [8]  02 01 42 00 00 00 00 00
 (007.838217)  can0  7E8   [8]  04 41 42 00 00 00 00 00
 (007.915863)  can0  7DF   [8]  02 01 43 00 00 00 00 00
 (007.916180)  can0  7E8   [8]  04 41 43 00 7F 00 00 00
 (007.992290)  can0  7DF   [8]  02 01 46 00 00 00 00 00
 (007.992674)  can0  7E8   [8]  03 41 46 00 00 00 00 00
 (008.068225)  can0  7DF   [8]  02 01 4D 00 00 00 00 00
 (008.068482)  can0  7E8   [8]  04 41 4D 00 00 00 00 00
 (008.142949)  can0  7DF   [8]  02 01 4E 00 00 00 00 00
 (008.143206)  can0  7E8   [8]  04 41 4E 00 00 00 00 00
 (008.220478)  can0  7DF   [8]  02 01 51 00 00 00 00 00
 (008.220754)  can0  7E8   [8]  03 41 51 01 00 00 00 00
 (008.294858)  can0  7DF   [8]  02 01 59 00 00 00 00 00
 (008.295119)  can0  7E8   [8]  04 41 59 00 00 00 00 00
 (008.372837)  can0  7DF   [8]  02 01 5B 00 00 00 00 00
 (008.373061)  can0  7E8   [8]  03 41 5B 00 00 00 00 00
 (008.452268)  can0  7DF   [8]  02 01 5C 00 00 00 00 00
 (008.452480)  can0  7E8   [8]  03 41 5C 00 00 00 00 00
 (008.529142)  can0  7DF   [8]  02 01 5D 00 00 00 00 00
 (008.529388)  can0  7E8   [8]  04 41 5D 00 00 00 00 00
 (008.604458)  can0  7DF   [8]  02 01 5E 00 00 00 00 00
 (008.604761)  can0  7E8   [8]  04 41 5E 00 91 00 00 00
 (008.683111)  can0  7DF   [8]  02 01 01 00 00 00 00 00
 (008.683381)  can0  7E8   [8]  06 41 01 00 00 07 0F 00
 (008.756779)  can0  7DF   [8]  02 01 04 00 00 00 00 00
 (008.757010)  can0  7E8   [8]  03 41 04 7F 00 00 00 00
 (008.843532)  can0  7DF   [8]  02 01 05 00 00 00 00 00
 (008.843808)  can0  7E8   [8]  03 41 05 00 00 00 00 00
 (008.924205)  can0  7DF   [8]  02 01 06 00 00 00 00 00
 (008.924450)  can0  7E8   [8]  04 41 06 00 00 00 00 00
 (009.000401)  can0  7DF   [8]  02 01 0A 00 00 00 00 00
 (009.000686)  can0  7E8   [8]  03 41 0A 00 00 00 00 00
 (009.075096)  can0  7DF   [8]  02 01 0B 00 00 00 00 00
 (009.075312)  can0  7E8   [8]  03 41 0B 00 00 00 00 00
 (009.148112)  can0  7DF   [8]  02 01 0C 00 00 00 00 00
 (009.148381)  can0  7E8   [8]  04 41 0C 11 08 00 00 00
 (009.240472)  can0  7DF   [8]  02 01 0D 00 00 00 00 00
 (009.240702)  can0  7E8   [8]  03 41 0D 46 00 00 00 00
 (009.315478)  can0  7DF   [8]  02 01 0E 00 00 00 00 00
 (009.315753)  can0  7E8   [8]  03 41 0E 00 00 00 00 00
 (009.392690)  can0  7DF   [8]  02 01 0F 00 00 00 00 00
 (009.392943)  can0  7E8   [8]  03 41 0F 00 00 00 00 00
 (009.467399)  can0  7DF   [8]  02 01 10 00 00 00 00 00
 (009.467688)  can0  7E8   [8]  04 41 10 00 00 00 00 00
 (009.540421)  can0  7DF   [8]  02 01 1F 00 00 00 00 00
 (009.540637)  can0  7E8   [8]  04 41 1F 00 00 00 00 00
 (009.624229)  can0  7DF   [8]  02 01 21 00 00 00 00 00
 (009.624473)  can0  7E8   [8]  04 41 21 00 00 00 00 00
 (009.701010)  can0  7DF   [8]  02 01 22 00 00 00 00 00
 (009.701339)  can0  7E8   [8]  04 41 22 00 00 00 00 00
 (009.776652)  can0  7DF   [8]  02 01 23 00 00 00 00 00
 (009.776946)  can0  7E8   [8]  04 41 23 00 00 00 00 00
 (009.849648)  can0  7DF   [8]  02 01 2C 00 00 00 00 00
 (009.849838)  can0  7E8   [8]  03 41 2C 00 00 00 00 00
 (009.924266)  can0  7DF   [8]  02 01 2D 00 00 00 00 00
 (009.924493)  can0  7E8   [8]  03 41 2D 00 00 00 00 00
 (009.997269)  can0  7DF   [8]  02 01 2F 00 00 00 00 00
 (009.997519)  can0  7E8   [8]  03 41 2F BF 00 00 00 00
 (010.071745)  can0  7DF   [8]  02 01 31 00 00 00 00 00
 (010.072022)  can0  7E8   [8]  04 41 31 00 00 00 00 00
 (010.144955)  can0  7DF   [8]  02 01 33 00 00 00 00 00
 (010.145194)  can0  7E8   [8]  03 41 33 00 00 00 00 00
 (010.218749)  can0  7DF   [8]  02 01 42 00 00 00 00 00
 (010.219061)  can0  7E8   [8]  04 41 42 00 00 00 00 00
 (010.306464)  can0  7DF   [8]  02 01 43 00 00 00 00 00
 (010.306686)  can0  7E8   [8]  04 41 43 00 7F 00 00 00
 (010.381407)  can0  7DF   [8]  02 01 46 00 00 00 00 00
 (010.381733)  can0  7E8   [8]  03 41 46 00 00 00 00 00
 (010.454158)  can0  7DF   [8]  02 01 4D 00 00 00 00 00
 (010.454435)  can0  7E8   [8]  04 41 4D 00 00 00 00 00
 (010.528499)  can0  7DF   [8]  02 01 4E 00 00 00 00 00
 (010.528778)  can0  7E8   [8]  04 41 4E 00 00 00 00 00
 (010.602643)  can0  7DF   [8]  02 01 51 00 00 00 00 00
 (010.602968)  can0  7E8   [8]  03 41 51 01 00 00 00 00
 (010.675734)  can0  7DF   [8]  02 01 59 00 00 00 00 00
 (010.676001)  can0  7E8   [8]  04 41 59 00 00 00 00 00
 (010.749988)  can0  7DF   [8]  02 01 5B 00 00 00 00 00
 (010.750256)  can0  7E8   [8]  03 41 5B 00 00 00 00 00
 (010.823263)  can0  7DF   [8]  02 01 5C 00 00 00 00 00
 (010.823530)  can0  7E8   [8]  03 41 5C 00 00 00 00 00
 (010.897560)  can0  7DF   [8]  02 01 5D 00 00 00 00 00
 (010.897847)  can0  7E8   [8]  04 41 5D 00 00 00 00 00
 (010.980312)  can0  7DF   [8]  02 01 5E 00 00 00 00 00
 (010.980572)  can0  7E8   [8]  04 41 5E 00 91 00 00 00
 (011.062061)  can0  7DF   [8]  02 01 01 00 00 00 00 00
 (011.062335)  can0  7E8   [8]  06 41 01 00 00 07 0F 00
 (011.137789)  can0  7DF   [8]  02 01 04 00 00 00 00 00
 (011.138102)  can0  7E8   [8]  03 41 04 7F 00 00 00 00
 (011.211584)  can0  7DF   [8]  02 01 05 00 00 00 00 00
 (011.211866)  can0  7E8   [8]  03 41 05 00 00 00 00 00
 (011.285039)  can0  7DF   [8]  02 01 06 00 00 00 00 00
 (011.285314)  can0  7E8   [8]  04 41 06 00 00 00 00 00
 (011.370053)  can0  7DF   [8]  02 01 0A 00 00 00 00 00
 (011.370073)  can0  7E8   [8]  03 41 0A 00 00 00 00 00
 (011.445564)  can0  7DF   [8]  02 01 0B 00 00 00 00 00
 (011.445817)  can0  7E8   [8]  03 41 0B 00 00 00 00 00
 (011.520518)  can0  7DF   [8]  02 01 0C 00 00 00 00 00
 (011.520781)  can0  7E8   [8]  04 41 0C 11 08 00 00 00
 (011.594024)  can0  7DF   [8]  02 01 0D 00 00 00 00 00
 (011.594291)  can0  7E8   [8]  03 41 0D 46 00 00 00 00
 (011.672466)  can0  7DF   [8]  02 01 0E 00 00 00 00 00
 (011.672732)  can0  7E8   [8]  03 41 0E 00 00 00 00 00
 (011.760748)  can0  7DF   [8]  02 01 0F 00 00 00 00 00
 (011.761020)  can0  7E8   [8]  03 41 0F 00 00 00 00 00
 (011.834032)  can0  7DF   [8]  02 01 10 00 00 00 00 00
 (011.834314)  can0  7E8   [8]  04 41 10 00 00 00 00 00
 (011.909016)  can0  7DF   [8]  02 01 1F 00 00 00 00 00
 (011.909211)  can0  7E8   [8]  04 41 1F 00 00 00 00 00
 (011.981708)  can0  7DF   [8]  02 01 21 00 00 00 00 00
 (011.982008)  can0  7E8   [8]  04 41 21 00 00 00 00 00
 (012.056095)  can0  7DF   [8]  02 01 22 00 00 00 00 00
 (012.056342)  can0  7E8   [8]  04 41 22 00 00 00 00 00
 (012.134587)  can0  7DF   [8]  02 01 23 00 00 00 00 00
 (012.134850)  can0  7E8   [8]  04 41 23 00 00 00 00 00
 (012.214177)  can0  7DF   [8]  02 01 2C 00 00 00 00 00
 (012.214431)  can0  7E8   [8]  03 41 2C 00 00 00 00 00
 (012.286499)  can0  7DF   [8]  02 01 2D 00 00 00 00 00
 (012.286765)  can0  7E8   [8]  03 41 2D 00 00 00 00 00
 (012.360793)  can0  7DF   [8]  02 01 2F 00 00 00 00 00
 (012.361031)  can0  7E8   [8]  03 41 2F BF 00 00 00 00
 (012.447778)  can0  7DF   [8]  02 01 31 00 00 00 00 00
 (012.448030)  can0  7E8   [8]  04 41 31 00 00 00 00 00
 (012.534220)  can0  7DF   [8]  02 01 33 00 00 00 00 00
 (012.534487)  can0  7E8   [8]  03 41 33 00 00 00 00 00
 (012.609374)  can0  7DF   [8]  02 01 42 00 00 00 00 00
 (012.609637)  can0  7E8   [8]  04 41 42 00 00 00 00 00
 (012.683971)  can0  7DF   [8]  02 01 43 00 00 00 00 00
 (012.684201)  can0  7E8   [8]  04 41 43 00 7F 00 00 00
 (012.757560)  can0  7DF   [8]  02 01 46 00 00 00 00 00
 (012.757860)  can0  7E8   [8]  03 41 46 00 00 00 00 00
 (012.836525)  can0  7DF   [8]  02 01 4D 00 00 00 00 00
 (012.836785)  can0  7E8   [8]  04 41 4D 00 00 00 00 00
 (012.913032)  can0  7DF   [8]  02 01 4E 00 00 00 00 00
 (012.913346)  can0  7E8   [8]  04 41 4E 00 00 00 00 00
 (012.988608)  can0  7DF   [8]  02 01 51 00 00 00 00 00
 (012.988938)  can0  7E8   [8]  03 41 51 01 00 00 00 00
 (013.061559)  can0  7DF   [8]  02 01 59 00 00 00 00 00
 (013.061838)  can0  7E8   [8]  04 41 59 00 00 00 00 00
 (013.136139)  can0  7DF   [8]  02 01 5B 00 00 00 00 00
 (013.136393)  can0  7E8   [8]  03 41 5B 00 00 00 00 00
 (013.209324)  can0  7DF   [8]  02 01 5C 00 00 00 00 00
 (013.209593)  can0  7E8   [8]  03 41 5C 00 00 00 00 00
 (013.283758)  can0  7DF   [8]  02 01 5D 00 00 00 00 00
 (013.283999)  can0  7E8   [8]  04 41 5D 00 00 00 00 00
 (013.357077)  can0  7DF   [8]  02 01 5E 00 00 00 00 00
 (013.357337)  can0  7E8   [8]  04 41 5E 00 91 00 00 00
 (013.431972)  can0  7DF   [8]  02 01 01 00 00 00 00 00
 (013.432221)  can0  7E8   [8]  06 41 01 00 00 07 0F 00
 (013.518461)  can0  7DF   [8]  02 01 04 00 00 00 00 00
 (013.518794)  can0  7E8   [8]  03 41 04 7F 00 00 00 00
 (013.593601)  can0  7DF   [8]  02 01 05 00 00 00 00 00
 (013.593930)  can0  7E8   [8]  03 41 05 00 00 00 00 00
 (013.666250)  can0  7DF   [8]  02 01 06 00 00 00 00 00
 (013.666477)  can0  7E8   [8]  04 41 06 00 00 00 00 00
 (013.740714)  can0  7DF   [8]  02 01 0A 00 00 00 00 00
 (013.740939)  can0  7E8   [8]  03 41 0A 00 00 00 00 00
 (013.813877)  can0  7DF   [8]  02 01 0B 00 00 00 00 00
 (013.814139)  can0  7E8   [8]  03 41 0B 00 00 00 00 00
 (013.887973)  can0  7DF   [8]  02 01 0C 00 00 00 00 00
 (013.888271)  can0  7E8   [8]  04 41 0C 11 08 00 00 00
 (013.961492)  can0  7DF   [8]  02 01 0D 00 00 00 00 00
 (013.961767)  can0  7E8   [8]  03 41 0D 46 00 00 00 00
 (014.035386)  can0  7DF   [8]  02 01 0E 00 00 00 00 00
 (014.035660)  can0  7E8   [8]  03 41 0E 00 00 00 00 00
 (014.109328)  can0  7DF   [8]  02 01 0F 00 00 00 00 00
 (014.109577)  can0  7E8   [8]  03 41 0F 00 00 00 00 00
 (014.202580)  can0  7DF   [8]  02 01 10 00 00 00 00 00
 (014.202934)  can0  7E8   [8]  04 41 10 00 00 00 00 00
 (014.275358)  can0  7DF   [8]  02 01 1F 00 00 00 00 00
 (014.275679)  can0  7E8   [8]  04 41 1F 00 00 00 00 00
 (014.349757)  can0  7DF   [8]  02 01 21 00 00 00 00 00
 (014.350032)  can0  7E8   [8]  04 41 21 00 00 00 00 00
 (014.423009)  can0  7DF   [8]  02 01 22 00 00 00 00 00
 (014.423340)  can0  7E8   [8]  04 41 22 00 00 00 00 00
 (014.496902)  can0  7DF   [8]  02 01 23 00 00 00 00 00
 (014.497214)  can0  7E8   [8]  04 41 23 00 00 00 00 00
 (014.584563)  can0  7DF   [8]  02 01 2C 00 00 00 00 00
 (014.584816)  can0  7E8   [8]  03 41 2C 00 00 00 00 00
 (014.659703)  can0  7DF   [8]  02 01 2D 00 00 00 00 00
 (014.659955)  can0  7E8   [8]  03 41 2D 00 00 00 00 00
 (014.732273)  can0  7DF   [8]  02 01 2F 00 00 00 00 00
 (014.732524)  can0  7E8   [8]  03 41 2F BF 00 00 00 00
 (014.806720)  can0  7DF   [8]  02 01 31 00 00 00 00 00
 (014.807001)  can0  7E8   [8]  04 41 31 00 00 00 00 00
 (014.879979)  can0  7DF   [8]  02 01 33 00 00 00 00 00
 (014.880241)  can0  7E8   [8]  03 41 33 00 00 00 00 00
 (014.953808)  can0  7DF   [8]  02 01 42 00 00 00 00 00
 (014.954069)  can0  7E8   [8]  04 41 42 00 00 00 00 00
 (015.029138)  can0  7DF   [8]  02 01 43 00 00 00 00 00
 (015.029397)  can0  7E8   [8]  04 41 43 00 7F 00 00 00
 (015.101787)  can0  7DF   [8]  02 01 46 00 00 00 00 00
 (015.102099)  can0  7E8   [8]  03 41 46 00 00 00 00 00
 (015.181643)  can0  7DF   [8]  02 01 4D 00 00 00 00 00
 (015.181875)  can0  7E8   [8]  04 41 4D 00 00 00 00 00
 (015.258429)  can0  7DF   [8]  02 01 4E 00 00 00 00 00
 (015.258695)  can0  7E8   [8]  04 41 4E 00 00 00 00 00
 (015.336205)  can0  7DF   [8]  02 01 51 00 00 00 00 00
 (015.336466)  can0  7E8   [8]  03 41 51 01 00 00 00 00
 (015.410709)  can0  7DF   [8]  02 01 59 00 00 00 00 00
 (015.410974)  can0  7E8   [8]  04 41 59 00 00 00 00 00
 (015.484394)  can0  7DF   [8]  02 01 5B 00 00 00 00 00
 (015.484723)  can0  7E8   [8]  03 41 5B 00 00 00 00 00
 (015.558307)  can0  7DF   [8]  02 01 5C 00 00 00 00 00
 (015.558569)  can0  7E8   [8]  03 41 5C 00 00 00 00 00
 (015.632224)  can0  7DF   [8]  02 01 5D 00 00 00 00 00
 (015.632496)  can0  7E8   [8]  04 41 5D 00 00 00 00 00
 (015.706029)  can0  7DF   [8]  02 01 5E 00 00 00 00 00
 (015.706289)  can0  7E8   [8]  04 41 5E 00 91 00 00 00
 (015.781645)  can0  7DF   [8]  02 01 01 00 00 00 00 00
 (015.781972)  can0  7E8   [8]  06 41 01 00 00 07 0F 00
 (015.858215)  can0  7DF   [8]  02 01 04 00 00 00 00 00
 (015.858491)  can0  7E8   [8]  03 41 04 7F 00 00 00 00
 (015.936718)  can0  7DF   [8]  02 01 05 00 00 00 00 00
 (015.937022)  can0  7E8   [8]  03 41 05 00 00 00 00 00
 (016.014312)  can0  7DF   [8]  02 01 06 00 00 00 00 00
 (016.014635)  can0  7E8   [8]  04 41 06 00 00 00 00 00
 (016.089045)  can0  7DF   [8]  02 01 0A 00 00 00 00 00
 (016.089285)  can0  7E8   [8]  03 41 0A 00 00 00 00 00
 (016.162894)  can0  7DF   [8]  02 01 0B 00 00 00 00 00
 (016.163176)  can0  7E8   [8]  03 41 0B 00 00 00 00 00
 (016.237976)  can0  7DF   [8]  02 01 0C 00 00 00 00 00
 (016.238146)  can0  7E8   [8]  04 41 0C 11 08 00 00 00
 (016.310552)  can0  7DF   [8]  02 01 0D 00 00 00 00 00
 (016.310795)  can0  7E8   [8]  03 41 0D 46 00 00 00 00
 (016.385032)  can0  7DF   [8]  02 01 0E 00 00 00 00 00
 (016.385345)  can0  7E8   [8]  03 41 0E 00 00 00 00 00
 (016.458267)  can0  7DF   [8]  02 01 0F 00 00 00 00 00
 (016.458538)  can0  7E8   [8]  03 41 0F 00 00 00 00 00
 (016.532521)  can0  7DF   [8]  02 01 10 00 00 00 00 00
 (016.532844)  can0  7E8   [8]  04 41 10 00 00 00 00 00
 (016.615218)  can0  7DF   [8]  02 01 1F 00 00 00 00 00
 (016.615477)  can0  7E8   [8]  04 41 1F 00 00 00 00 00
 (016.695357)  can0  7DF   [8]  02 01 21 00 00 00 00 00
 (016.695614)  can0  7E8   [8]  04 41 21 00 00 00 00 00
 (016.767365)  can0  7DF   [8]  02 01 22 00 00 00 00 00
 (016.767630)  can0  7E8   [8]  04 41 22 00 00 00 00 00
 (016.841836)  can0  7DF   [8]  02 01 23 00 00 00 00 00
 (016.842079)  can0  7E8   [8]  04 41 23 00 00 00 00 00
 (016.915215)  can0  7DF   [8]  02 01 2C 00 00 00 00 00
 (016.915459)  can0  7E8   [8]  03 41 2C 00 00 00 00 00
 (016.988961)  can0  7DF   [8]  02 01 2D 00 00 00 00 00
 (016.989222)  can0  7E8   [8]  03 41 2D 00 00 00 00 00
 (017.062842)  can0  7DF   [8]  02 01 2F 00 00 00 00 00
 (017.063080)  can0  7E8   [8]  03 41 2F BF 00 00 00 00
 (017.136658)  can0  7DF   [8]  02 01 31 00 00 00 00 00
 (017.136971)  can0  7E8   [8]  04 41 31 00 00 00 00 00
 (017.210597)  can0  7DF   [8]  02 01 33 00 00 00 00 00
 (017.210751)  can0  7E8   [8]  03 41 33 00 00 00 00 00
 (017.284263)  can0  7DF   [8]  02 01 42 00 00 00 00 00
 (017.284560)  can0  7E8   [8]  04 41 42 00 00 00 00 00
 (017.358457)  can0  7DF   [8]  02 01 43 00 00 00 00 00
 (017.358725)  can0  7E8   [8]  04 41 43 00 7F 00 00 00
 (017.431996)  can0  7DF   [8]  02 01 46 00 00 00 00 00
 (017.432210)  can0  7E8   [8]  03 41 46 00 00 00 00 00
 (017.506963)  can0  7DF   [8]  02 01 4D 00 00 00 00 00
 (017.507179)  can0  7E8   [8]  04 41 4D 00 00 00 00 00
 (017.584313)  can0  7DF   [8]  02 01 4E 00 00 00 00 00
 (017.584597)  can0  7E8   [8]  04 41 4E 00 00 00 00 00
 (017.664183)  can0  7DF   [8]  02 01 51 00 00 00 00 00
 (017.664448)  can0  7E8   [8]  03 41 51 01 00 00 00 00
