  can0  7DF   [8]  02 01 42 00 00 00 00 00
  can0  7E8   [8]  04 41 42 00 00 00 00 00
  can0  7DF   [8]  02 01 43 00 00 00 00 00
  can0  7E8   [8]  04 41 43 00 00 00 00 00
  can0  7DF   [8]  02 01 44 00 00 00 00 00
  can0  7E8   [8]  04 41 44 00 00 00 00 00
  can0  7DF   [8]  02 01 46 00 00 00 00 00
  can0  7E8   [8]  03 41 46 00 00 00 00 00
  can0  7DF   [8]  02 01 47 00 00 00 00 00
  can0  7E8   [8]  03 41 47 00 00 00 00 00
  can0  7DF   [8]  02 01 4D 00 00 00 00 00
  can0  7E8   [8]  04 41 4D 00 00 00 00 00
  can0  7DF   [8]  02 01 4E 00 00 00 00 00
  can0  7E8   [8]  04 41 4E 00 00 00 00 00
  can0  7DF   [8]  02 01 51 00 00 00 00 00
  can0  7E8   [8]  03 41 51 01 00 00 00 00
  can0  7DF   [8]  02 01 52 00 00 00 00 00
  can0  7E8   [8]  03 41 52 00 00 00 00 00
  can0  7DF   [8]  02 01 59 00 00 00 00 00
  can0  7E8   [8]  04 41 59 00 00 00 00 00
  can0  7DF   [8]  02 01 5B 00 00 00 00 00
  can0  7E8   [8]  03 41 5B 00 00 00 00 00
  can0  7DF   [8]  02 01 5C 00 00 00 00 00
  can0  7E8   [8]  03 41 5C 00 00 00 00 00
  can0  7DF   [8]  02 01 5D 00 00 00 00 00
  can0  7E8   [8]  04 41 5D 00 00 00 00 00
  can0  7DF   [8]  02 01 5E 00 00 00 00 00
  can0  7E8   [8]  04 41 5E 00 00 00 00 00
  can0  7DF   [8]  02 01 01 00 00 00 00 00
  can0  7E8   [8]  06 41 01 00 00 07 0F 00
  can0  7DF   [8]  02 01 04 00 00 00 00 00
  can0  7E8   [8]  03 41 04 00 00 00 00 00
  can0  7DF   [8]  02 01 05 00 00 00 00 00
  can0  7E8   [8]  03 41 05 00 00 00 00 00
  can0  7DF   [8]  02 01 06 00 00 00 00 00
  can0  7E8   [8]  04 41 06 00 00 00 00 00
  can0  7DF   [8]  02 01 0A 00 00 00 00 00
  can0  7E8   [8]  03 41 0A 00 00 00 00 00
  can0  7DF   [8]  02 01 0B 00 00 00 00 00
  can0  7E8   [8]  03 41 0B 00 00 00 00 00
  can0  7DF   [8]  02 01 0C 00 00 00 00 00
  can0  7E8   [8]  04 41 0C 13 10 00 00 00
  can0  7DF   [8]  02 01 0D 00 00 00 00 00
  can0  7E8   [8]  03 41 0D 32 00 00 00 00
  can0  7DF   [8]  02 01 0E 00 00 00 00 00
  can0  7E8   [8]  03 41 0E 00 00 00 00 00
  can0  7DF   [8]  02 01 0F 00 00 00 00 00
  can0  7E8   [8]  03 41 0F 00 00 00 00 00
  can0  7DF   [8]  02 01 10 00 00 00 00 00
  can0  7E8   [8]  04 41 10 00 00 00 00 00
  can0  7DF   [8]  02 01 11 00 00 00 00 00
  can0  7E8   [8]  03 41 11 00 00 00 00 00
  can0  7DF   [8]  02 01 1F 00 00 00 00 00
  can0  7E8   [8]  04 41 1F 00 00 00 00 00
  can0  7DF   [8]  02 01 21 00 00 00 00 00
  can0  7E8   [8]  04 41 21 00 00 00 00 00
  can0  7DF   [8]  02 01 22 00 00 00 00 00
  can0  7E8   [8]  04 41 22 00 00 00 00 00
  can0  7DF   [8]  02 01 23 00 00 00 00 00
  can0  7E8   [8]  04 41 23 00 00 00 00 00
  can0  7DF   [8]  02 01 2C 00 00 00 00 00
  can0  7E8   [8]  03 41 2C 00 00 00 00 00
  can0  7DF   [8]  02 01 2D 00 00 00 00 00
  can0  7E8   [8]  03 41 2D 00 00 00 00 00
  can0  7DF   [8]  02 01 2F 00 00 00 00 00
  can0  7E8   [8]  03 41 2F 00 00 00 00 00
  can0  7DF   [8]  02 01 31 00 00 00 00 00
  can0  7E8   [8]  04 41 31 00 00 00 00 00
  can0  7DF   [8]  02 01 33 00 00 00 00 00
  can0  7E8   [8]  03 41 33 00 00 00 00 00
  can0  7DF   [8]  02 01 42 00 00 00 00 00
  can0  7E8   [8]  04 41 42 00 00 00 00 00
  can0  7DF   [8]  02 01 43 00 00 00 00 00
  can0  7E8   [8]  04 41 43 00 00 00 00 00
  can0  7DF   [8]  02 01 44 00 00 00 00 00
  can0  7E8   [8]  04 41 44 00 00 00 00 00
  can0  7DF   [8]  02 01 46 00 00 00 00 00
  can0  7E8   [8]  03 41 46 00 00 00 00 00
  can0  7DF   [8]  02 01 47 00 00 00 00 00
  can0  7E8   [8]  03 41 47 00 00 00 00 00
  can0  7DF   [8]  02 01 4D 00 00 00 00 00
  can0  7E8   [8]  04 41 4D 00 00 00 00 00
  can0  7DF   [8]  02 01 4E 00 00 00 00 00
  can0  7E8   [8]  04 41 4E 00 00 00 00 00
  can0  7DF   [8]  02 01 51 00 00 00 00 00
  can0  7E8   [8]  03 41 51 01 00 00 00 00
  can0  7DF   [8]  02 01 52 00 00 00 00 00
  can0  7E8   [8]  03 41 52 00 00 00 00 00
  can0  7DF   [8]  02 01 59 00 00 00 00 00
  can0  7E8   [8]  04 41 59 00 00 00 00 00
  can0  7DF   [8]  02 01 5B 00 00 00 00 00
  can0  7E8   [8]  03 41 5B 00 00 00 00 00
  can0  7DF   [8]  02 01 5C 00 00 00 00 00
  can0  7E8   [8]  03 41 5C 00 00 00 00 00
  can0  7DF   [8]  02 01 5D 00 00 00 00 00
  can0  7E8   [8]  04 41 5D 00 00 00 00 00
  can0  7DF   [8]  02 01 5E 00 00 00 00 00
  can0  7E8   [8]  04 41 5E 00 00 00 00 00
  can0  7DF   [8]  02 01 01 00 00 00 00 00
  can0  7E8   [8]  06 41 01 00 00 07 0F 00
  can0  7DF   [8]  02 01 04 00 00 00 00 00
  can0  7E8   [8]  03 41 04 00 00 00 00 00
  can0  7DF   [8]  02 01 05 00 00 00 00 00
  can0  7E8   [8]  03 41 05 00 00 00 00 00
  can0  7DF   [8]  02 01 06 00 00 00 00 00
  can0  7E8   [8]  04 41 06 00 00 00 00 00
  can0  7DF   [8]  02 01 0A 00 00 00 00 00
  can0  7E8   [8]  03 41 0A 00 00 00 00 00
  can0  7DF   [8]  02 01 0B 00 00 00 00 00
  can0  7E8   [8]  03 41 0B 00 00 00 00 00
  can0  7DF   [8]  02 01 0C 00 00 00 00 00
  can0  7E8   [8]  04 41 0C 13 10 00 00 00
  can0  7DF   [8]  02 01 0D 00 00 00 00 00
  can0  7E8   [8]  03 41 0D 32 00 00 00 00
  can0  7DF   [8]  02 01 0E 00 00 00 00 00
  can0  7E8   [8]  03 41 0E 00 00 00 00 00
  can0  7DF   [8]  02 01 0F 00 00 00 00 00
  can0  7E8   [8]  03 41 0F 00 00 00 00 00
  can0  7DF   [8]  02 01 10 00 00 00 00 00
  can0  7E8   [8]  04 41 10 00 00 00 00 00
  can0  7DF   [8]  02 01 11 00 00 00 00 00
  can0  7E8   [8]  03 41 11 00 00 00 00 00
  can0  7DF   [8]  02 01 1F 00 00 00 00 00
  can0  7E8   [8]  04 41 1F 00 00 00 00 00
  can0  7DF   [8]  02 01 21 00 00 00 00 00
  can0  7E8   [8]  04 41 21 00 00 00 00 00
  can0  7DF   [8]  02 01 22 00 00 00 00 00
  can0  7E8   [8]  04 41 22 00 00 00 00 00
  can0  7DF   [8]  02 01 23 00 00 00 00 00
  can0  7E8   [8]  04 41 23 00 00 00 00 00
  can0  7DF   [8]  02 01 2C 00 00 00 00 00
  can0  7E8   [8]  03 41 2C 00 00 00 00 00
  can0  7DF   [8]  02 01 2D 00 00 00 00 00
  can0  7E8   [8]  03 41 2D 00 00 00 00 00
  can0  7DF   [8]  02 01 2F 00 00 00 00 00
  can0  7E8   [8]  03 41 2F 00 00 00 00 00
  can0  7DF   [8]  02 01 31 00 00 00 00 00
  can0  7E8   [8]  04 41 31 00 00 00 00 00
  can0  7DF   [8]  02 01 33 00 00 00 00 00
  can0  7E8   [8]  03 41 33 00 00 00 00 00
  can0  7DF   [8]  02 01 42 00 00 00 00 00
  can0  7E8   [8]  04 41 42 00 00 00 00 00
  can0  7DF   [8]  02 01 43 00 00 00 00 00
  can0  7E8   [8]  04 41 43 00 00 00 00 00
  can0  7DF   [8]  02 01 44 00 00 00 00 00
  can0  7E8   [8]  04 41 44 00 00 00 00 00
  can0  7DF   [8]  02 01 46 00 00 00 00 00
  can0  7E8   [8]  03 41 46 00 00 00 00 00
  can0  7DF   [8]  02 01 47 00 00 00 00 00
  can0  7E8   [8]  03 41 47 00 00 00 00 00
  can0  7DF   [8]  02 01 4D 00 00 00 00 00
  can0  7E8   [8]  04 41 4D 00 00 00 00 00
  can0  7DF   [8]  02 01 4E 00 00 00 00 00
  can0  7E8   [8]  04 41 4E 00 00 00 00 00
  can0  7DF   [8]  02 01 51 00 00 00 00 00
  can0  7E8   [8]  03 41 51 01 00 00 00 00
  can0  7DF   [8]  02 01 52 00 00 00 00 00
  can0  7E8   [8]  03 41 52 00 00 00 00 00
  can0  7DF   [8]  02 01 59 00 00 00 00 00
  can0  7E8   [8]  04 41 59 00 00 00 00 00
  can0  7DF   [8]  02 01 5B 00 00 00 00 00
  can0  7E8   [8]  03 41 5B 00 00 00 00 00
  can0  7DF   [8]  02 01 5C 00 00 00 00 00
  can0  7E8   [8]  03 41 5C 00 00 00 00 00
  can0  7DF   [8]  02 01 5D 00 00 00 00 00
  can0  7E8   [8]  04 41 5D 00 00 00 00 00
  can0  7DF   [8]  02 01 5E 00 00 00 00 00
  can0  7E8   [8]  04 41 5E 00 00 00 00 00
  can0  7DF   [8]  02 01 01 00 00 00 00 00
  can0  7E8   [8]  06 41 01 00 00 07 0F 00
  can0  7DF   [8]  02 01 04 00 00 00 00 00
  can0  7E8   [8]  03 41 04 00 00 00 00 00
  can0  7DF   [8]  02 01 05 00 00 00 00 00
  can0  7E8   [8]  03 41 05 00 00 00 00 00
  can0  7DF   [8]  02 01 06 00 00 00 00 00
  can0  7E8   [8]  04 41 06 00 00 00 00 00
  can0  7DF   [8]  02 01 0A 00 00 00 00 00
  can0  7E8   [8]  03 41 0A 00 00 00 00 00
  can0  7DF   [8]  02 01 0B 00 00 00 00 00
  can0  7E8   [8]  03 41 0B 00 00 00 00 00
  can0  7DF   [8]  02 01 0C 00 00 00 00 00
  can0  7E8   [8]  04 41 0C 13 10 00 00 00
  can0  7DF   [8]  02 01 0D 00 00 00 00 00
  can0  7E8   [8]  03 41 0D 32 00 00 00 00
  can0  7DF   [8]  02 01 0E 00 00 00 00 00
  can0  7E8   [8]  03 41 0E 00 00 00 00 00
  can0  7DF   [8]  02 01 0F 00 00 00 00 00
  can0  7E8   [8]  03 41 0F 00 00 00 00 00
  can0  7DF   [8]  02 01 10 00 00 00 00 00
  can0  7E8   [8]  04 41 10 00 00 00 00 00
  can0  7DF   [8]  02 01 11 00 00 00 00 00
  can0  7E8   [8]  03 41 11 00 00 00 00 00
  can0  7DF   [8]  02 01 1F 00 00 00 00 00
  can0  7E8   [8]  04 41 1F 00 00 00 00 00
  can0  7DF   [8]  02 01 21 00 00 00 00 00
  can0  7E8   [8]  04 41 21 00 00 00 00 00
  can0  7DF   [8]  02 01 22 00 00 00 00 00
  can0  7E8   [8]  04 41 22 00 00 00 00 00
  can0  7DF   [8]  02 01 23 00 00 00 00 00
  can0  7E8   [8]  04 41 23 00 00 00 00 00
  can0  7DF   [8]  02 01 2C 00 00 00 00 00
  can0  7E8   [8]  03 41 2C 00 00 00 00 00
  can0  7DF   [8]  02 01 2D 00 00 00 00 00
  can0  7E8   [8]  03 41 2D 00 00 00 00 00
  can0  7DF   [8]  02 01 2F 00 00 00 00 00
  can0  7E8   [8]  03 41 2F 00 00 00 00 00
  can0  7DF   [8]  02 01 31 00 00 00 00 00
  can0  7E8   [8]  04 41 31 00 00 00 00 00
  can0  7DF   [8]  02 01 33 00 00 00 00 00
  can0  7E8   [8]  03 41 33 00 00 00 00 00
  can0  7DF   [8]  02 01 42 00 00 00 00 00
  can0  7E8   [8]  04 41 42 00 00 00 00 00
  can0  7DF   [8]  02 01 43 00 00 00 00 00
  can0  7E8   [8]  04 41 43 00 00 00 00 00
  can0  7DF   [8]  02 01 44 00 00 00 00 00
  can0  7E8   [8]  04 41 44 00 00 00 00 00
  can0  7DF   [8]  02 01 46 00 00 00 00 00
  can0  7E8   [8]  03 41 46 00 00 00 00 00
  can0  7DF   [8]  02 01 47 00 00 00 00 00
  can0  7E8   [8]  03 41 47 00 00 00 00 00
  can0  7DF   [8]  02 01 4D 00 00 00 00 00
  can0  7E8   [8]  04 41 4D 00 00 00 00 00
  can0  7DF   [8]  02 01 4E 00 00 00 00 00
  can0  7E8   [8]  04 41 4E 00 00 00 00 00
  can0  7DF   [8]  02 01 51 00 00 00 00 00
  can0  7E8   [8]  03 41 51 01 00 00 00 00
  can0  7DF   [8]  02 01 52 00 00 00 00 00
  can0  7E8   [8]  03 41 52 00 00 00 00 00
  can0  7DF   [8]  02 01 59 00 00 00 00 00
  can0  7E8   [8]  04 41 59 00 00 00 00 00
  can0  7DF   [8]  02 01 5B 00 00 00 00 00
  can0  7E8   [8]  03 41 5B 00 00 00 00 00
  can0  7DF   [8]  02 01 5C 00 00 00 00 00
  can0  7E8   [8]  03 41 5C 00 00 00 00 00
  can0  7DF   [8]  02 01 5D 00 00 00 00 00
  can0  7E8   [8]  04 41 5D 00 00 00 00 00
  can0  7DF   [8]  02 01 5E 00 00 00 00 00
  can0  7E8   [8]  04 41 5E 00 00 00 00 00
  can0  7DF   [8]  02 01 01 00 00 00 00 00
  can0  7E8   [8]  06 41 01 00 00 07 0F 00
  can0  7DF   [8]  02 01 04 00 00 00 00 00
  can0  7E8   [8]  03 41 04 00 00 00 00 00
  can0  7DF   [8]  02 01 05 00 00 00 00 00
  can0  7E8   [8]  03 41 05 00 00 00 00 00
  can0  7DF   [8]  02 01 06 00 00 00 00 00
  can0  7E8   [8]  04 41 06 00 00 00 00 00
  can0  7DF   [8]  02 01 0A 00 00 00 00 00
  can0  7E8   [8]  03 41 0A 00 00 00 00 00
  can0  7DF   [8]  02 01 0B 00 00 00 00 00
  can0  7E8   [8]  03 41 0B 00 00 00 00 00
  can0  7DF   [8]  02 01 0C 00 00 00 00 00
  can0  7E8   [8]  04 41 0C 13 10 00 00 00
  can0  7DF   [8]  02 01 0D 00 00 00 00 00
  can0  7E8   [8]  03 41 0D 32 00 00 00 00
  can0  7DF   [8]  02 01 0E 00 00 00 00 00
  can0  7E8   [8]  03 41 0E 00 00 00 00 00
  can0  7DF   [8]  02 01 0F 00 00 00 00 00
  can0  7E8   [8]  03 41 0F 00 00 00 00 00
  can0  7DF   [8]  02 01 10 00 00 00 00 00
  can0  7E8   [8]  04 41 10 00 00 00 00 00
  can0  7DF   [8]  02 01 11 00 00 00 00 00
  can0  7E8   [8]  03 41 11 00 00 00 00 00
  can0  7DF   [8]  02 01 1F 00 00 00 00 00
  can0  7E8   [8]  04 41 1F 00 00 00 00 00
  can0  7DF   [8]  02 01 21 00 00 00 00 00
  can0  7E8   [8]  04 41 21 00 00 00 00 00
  can0  7DF   [8]  02 01 22 00 00 00 00 00
  can0  7E8   [8]  04 41 22 00 00 00 00 00
  can0  7DF   [8]  02 01 23 00 00 00 00 00
  can0  7E8   [8]  04 41 23 00 00 00 00 00
  can0  7DF   [8]  02 01 2C 00 00 00 00 00
  can0  7E8   [8]  03 41 2C 00 00 00 00 00
  can0  7DF   [8]  02 01 2D 00 00 00 00 00
  can0  7E8   [8]  03 41 2D 00 00 00 00 00
  can0  7DF   [8]  02 01 2F 00 00 00 00 00
  can0  7E8   [8]  03 41 2F 00 00 00 00 00
  can0  7DF   [8]  02 01 31 00 00 00 00 00
  can0  7E8   [8]  04 41 31 00 00 00 00 00
  can0  7DF   [8]  02 01 33 00 00 00 00 00
  can0  7E8   [8]  03 41 33 00 00 00 00 00
  can0  7DF   [8]  02 01 42 00 00 00 00 00
  can0  7E8   [8]  04 41 42 00 00 00 00 00
  can0  7DF   [8]  02 01 43 00 00 00 00 00
  can0  7E8   [8]  04 41 43 00 00 00 00 00
  can0  7DF   [8]  02 01 44 00 00 00 00 00
  can0  7E8   [8]  04 41 44 00 00 00 00 00
  can0  7DF   [8]  02 01 46 00 00 00 00 00
  can0  7E8   [8]  03 41 46 00 00 00 00 00
  can0  7DF   [8]  02 01 47 00 00 00 00 00
  can0  7E8   [8]  03 41 47 00 00 00 00 00
  can0  7DF   [8]  02 01 4D 00 00 00 00 00
  can0  7E8   [8]  04 41 4D 00 00 00 00 00
  can0  7DF   [8]  02 01 4E 00 00 00 00 00
  can0  7E8   [8]  04 41 4E 00 00 00 00 00
  can0  7DF   [8]  02 01 51 00 00 00 00 00
  can0  7E8   [8]  03 41 51 01 00 00 00 00
  can0  7DF   [8]  02 01 52 00 00 00 00 00
  can0  7E8   [8]  03 41 52 00 00 00 00 00
  can0  7DF   [8]  02 01 59 00 00 00 00 00
  can0  7E8   [8]  04 41 59 00 00 00 00 00
  can0  7DF   [8]  02 01 5B 00 00 00 00 00
  can0  7E8   [8]  03 41 5B 00 00 00 00 00
  can0  7DF   [8]  02 01 5C 00 00 00 00 00
  can0  7E8   [8]  03 41 5C 00 00 00 00 00
  can0  7DF   [8]  02 01 5D 00 00 00 00 00
  can0  7E8   [8]  04 41 5D 00 00 00 00 00
  can0  7DF   [8]  02 01 5E 00 00 00 00 00
  can0  7E8   [8]  04 41 5E 00 00 00 00 00
  can0  7DF   [8]  02 01 01 00 00 00 00 00
  can0  7E8   [8]  06 41 01 00 00 07 0F 00
  can0  7DF   [8]  02 01 04 00 00 00 00 00
  can0  7E8   [8]  03 41 04 00 00 00 00 00
  can0  7DF   [8]  02 01 05 00 00 00 00 00
  can0  7E8   [8]  03 41 05 00 00 00 00 00
  can0  7DF   [8]  02 01 06 00 00 00 00 00
  can0  7E8   [8]  04 41 06 00 00 00 00 00
  can0  7DF   [8]  02 01 0A 00 00 00 00 00
  can0  7E8   [8]  03 41 0A 00 00 00 00 00
  can0  7DF   [8]  02 01 0B 00 00 00 00 00
  can0  7E8   [8]  03 41 0B 00 00 00 00 00
  can0  7DF   [8]  02 01 0C 00 00 00 00 00
  can0  7E8   [8]  04 41 0C 13 10 00 00 00
  can0  7DF   [8]  02 01 0D 00 00 00 00 00
  can0  7E8   [8]  03 41 0D 32 00 00 00 00
  can0  7DF   [8]  02 01 0E 00 00 00 00 00
  can0  7E8   [8]  03 41 0E 00 00 00 00 00
  can0  7DF   [8]  02 01 0F 00 00 00 00 00
  can0  7E8   [8]  03 41 0F 00 00 00 00 00
  can0  7DF   [8]  02 01 10 00 00 00 00 00
  can0  7E8   [8]  04 41 10 00 00 00 00 00
  can0  7DF   [8]  02 01 11 00 00 00 00 00
  can0  7E8   [8]  03 41 11 00 00 00 00 00
  can0  7DF   [8]  02 01 1F 00 00 00 00 00
  can0  7E8   [8]  04 41 1F 00 00 00 00 00
  can0  7DF   [8]  02 01 21 00 00 00 00 00
  can0  7E8   [8]  04 41 21 00 00 00 00 00
  can0  7DF   [8]  02 01 22 00 00 00 00 00
  can0  7E8   [8]  04 41 22 00 00 00 00 00
  can0  7DF   [8]  02 01 23 00 00 00 00 00
  can0  7E8   [8]  04 41 23 00 00 00 00 00
  can0  7DF   [8]  02 01 2C 00 00 00 00 00
  can0  7E8   [8]  03 41 2C 00 00 00 00 00
  can0  7DF   [8]  02 01 2D 00 00 00 00 00
  can0  7E8   [8]  03 41 2D 00 00 00 00 00
  can0  7DF   [8]  02 01 2F 00 00 00 00 00
  can0  7E8   [8]  03 41 2F 00 00 00 00 00
  can0  7DF   [8]  02 01 31 00 00 00 00 00
  can0  7E8   [8]  04 41 31 00 00 00 00 00
  can0  7DF   [8]  02 01 33 00 00 00 00 00
  can0  7E8   [8]  03 41 33 00 00 00 00 00
  can0  7DF   [8]  02 01 42 00 00 00 00 00
  can0  7E8   [8]  04 41 42 00 00 00 00 00
  can0  7DF   [8]  02 01 43 00 00 00 00 00
  can0  7E8   [8]  04 41 43 00 00 00 00 00
  can0  7DF   [8]  02 01 44 00 00 00 00 00
  can0  7E8   [8]  04 41 44 00 00 00 00 00
  can0  7DF   [8]  02 01 46 00 00 00 00 00
  can0  7E8   [8]  03 41 46 00 00 00 00 00
  can0  7DF   [8]  02 01 47 00 00 00 00 00
  can0  7E8   [8]  03 41 47 00 00 00 00 00
  can0  7DF   [8]  02 01 4D 00 00 00 00 00
  can0  7E8   [8]  04 41 4D 00 00 00 00 00
  can0  7DF   [8]  02 01 4E 00 00 00 00 00
  can0  7E8   [8]  04 41 4E 00 00 00 00 00
  can0  7DF   [8]  02 01 51 00 00 00 00 00
  can0  7E8   [8]  03 41 51 01 00 00 00 00
  can0  7DF   [8]  02 01 52 00 00 00 00 00
  can0  7E8   [8]  03 41 52 00 00 00 00 00
  can0  7DF   [8]  02 01 59 00 00 00 00 00
  can0  7E8   [8]  04 41 59 00 00 00 00 00
  can0  7DF   [8]  02 01 5B 00 00 00 00 00
  can0  7E8   [8]  03 41 5B 00 00 00 00 00
  can0  7DF   [8]  02 01 5C 00 00 00 00 00
  can0  7E8   [8]  03 41 5C 00 00 00 00 00
  can0  7DF   [8]  02 01 5D 00 00 00 00 00
  can0  7E8   [8]  04 41 5D 00 00 00 00 00
  can0  7DF   [8]  02 01 5E 00 00 00 00 00
  can0  7E8   [8]  04 41 5E 00 00 00 00 00
  can0  7DF   [8]  02 01 01 00 00 00 00 00
  can0  7E8   [8]  06 41 01 00 00 07 0F 00
  can0  7DF   [8]  02 01 04 00 00 00 00 00
  can0  7E8   [8]  03 41 04 00 00 00 00 00
  can0  7DF   [8]  02 01 05 00 00 00 00 00
  can0  7E8   [8]  03 41 05 00 00 00 00 00
  can0  7DF   [8]  02 01 06 00 00 00 00 00
  can0  7E8   [8]  04 41 06 00 00 00 00 00
  can0  7DF   [8]  02 01 0A 00 00 00 00 00
  can0  7E8   [8]  03 41 0A 00 00 00 00 00
  can0  7DF   [8]  02 01 0B 00 00 00 00 00
  can0  7E8   [8]  03 41 0B 00 00 00 00 00
  can0  7DF   [8]  02 01 0C 00 00 00 00 00
  can0  7E8   [8]  04 41 0C 13 10 00 00 00
  can0  7DF   [8]  02 01 0D 00 00 00 00 00
  can0  7E8   [8]  03 41 0D 32 00 00 00 00
  can0  7DF   [8]  02 01 0E 00 00 00 00 00
  can0  7E8   [8]  03 41 0E 00 00 00 00 00
  can0  7DF   [8]  02 01 0F 00 00 00 00 00
  can0  7E8   [8]  03 41 0F 00 00 00 00 00
  can0  7DF   [8]  02 01 10 00 00 00 00 00
  can0  7E8   [8]  04 41 10 00 00 00 00 00
  can0  7DF   [8]  02 01 11 00 00 00 00 00
  can0  7E8   [8]  03 41 11 00 00 00 00 00
  can0  7DF   [8]  02 01 1F 00 00 00 00 00
  can0  7E8   [8]  04 41 1F 00 00 00 00 00
  can0  7DF   [8]  02 01 21 00 00 00 00 00
  can0  7E8   [8]  04 41 21 00 00 00 00 00
  can0  7DF   [8]  02 01 22 00 00 00 00 00
  can0  7E8   [8]  04 41 22 00 00 00 00 00
  can0  7DF   [8]  02 01 23 00 00 00 00 00
  can0  7E8   [8]  04 41 23 00 00 00 00 00
  can0  7DF   [8]  02 01 2C 00 00 00 00 00
  can0  7E8   [8]  03 41 2C 00 00 00 00 00
  can0  7DF   [8]  02 01 2D 00 00 00 00 00
  can0  7E8   [8]  03 41 2D 00 00 00 00 00
  can0  7DF   [8]  02 01 2F 00 00 00 00 00
  can0  7E8   [8]  03 41 2F 00 00 00 00 00
  can0  7DF   [8]  02 01 31 00 00 00 00 00
  can0  7E8   [8]  04 41 31 00 00 00 00 00
  can0  7DF   [8]  02 01 33 00 00 00 00 00
  can0  7E8   [8]  03 41 33 00 00 00 00 00
  can0  7DF   [8]  02 01 42 00 00 00 00 00
  can0  7E8   [8]  04 41 42 00 00 00 00 00
  can0  7DF   [8]  02 01 43 00 00 00 00 00
  can0  7E8   [8]  04 41 43 00 00 00 00 00
  can0  7DF   [8]  02 01 44 00 00 00 00 00
  can0  7E8   [8]  04 41 44 00 00 00 00 00
  can0  7DF   [8]  02 01 46 00 00 00 00 00
  can0  7E8   [8]  03 41 46 00 00 00 00 00
  can0  7DF   [8]  02 01 47 00 00 00 00 00
  can0  7E8   [8]  03 41 47 00 00 00 00 00
  can0  7DF   [8]  02 01 4D 00 00 00 00 00
  can0  7E8   [8]  04 41 4D 00 00 00 00 00
  can0  7DF   [8]  02 01 4E 00 00 00 00 00
  can0  7E8   [8]  04 41 4E 00 00 00 00 00
  can0  7DF   [8]  02 01 51 00 00 00 00 00
  can0  7E8   [8]  03 41 51 01 00 00 00 00
  can0  7DF   [8]  02 01 52 00 00 00 00 00
  can0  7E8   [8]  03 41 52 00 00 00 00 00
  can0  7DF   [8]  02 01 59 00 00 00 00 00
  can0  7E8   [8]  04 41 59 00 00 00 00 00
  can0  7DF   [8]  02 01 5B 00 00 00 00 00
  can0  7E8   [8]  03 41 5B 00 00 00 00 00
  can0  7DF   [8]  02 01 5C 00 00 00 00 00
  can0  7E8   [8]  03 41 5C 00 00 00 00 00
  can0  7DF   [8]  02 01 5D 00 00 00 00 00
  can0  7E8   [8]  04 41 5D 00 00 00 00 00
  can0  7DF   [8]  02 01 5E 00 00 00 00 00
  can0  7E8   [8]  04 41 5E 00 00 00 00 00
  can0  7DF   [8]  02 01 01 00 00 00 00 00
  can0  7E8   [8]  06 41 01 00 00 07 0F 00
  can0  7DF   [8]  02 01 04 00 00 00 00 00
  can0  7E8   [8]  03 41 04 00 00 00 00 00
  can0  7DF   [8]  02 01 05 00 00 00 00 00
  can0  7E8   [8]  03 41 05 00 00 00 00 00
  can0  7DF   [8]  02 01 06 00 00 00 00 00
  can0  7E8   [8]  04 41 06 00 00 00 00 00
  can0  7DF   [8]  02 01 0A 00 00 00 00 00
  can0  7E8   [8]  03 41 0A 00 00 00 00 00
  can0  7DF   [8]  02 01 0B 00 00 00 00 00
  can0  7E8   [8]  03 41 0B 00 00 00 00 00
  can0  7DF   [8]  02 01 0C 00 00 00 00 00
  can0  7E8   [8]  04 41 0C 13 10 00 00 00
  can0  7DF   [8]  02 01 0D 00 00 00 00 00
  can0  7E8   [8]  03 41 0D 32 00 00 00 00
  can0  7DF   [8]  02 01 0E 00 00 00 00 00
  can0  7E8   [8]  03 41 0E 00 00 00 00 00
  can0  7DF   [8]  02 01 0F 00 00 00 00 00
  can0  7E8   [8]  03 41 0F 00 00 00 00 00
  can0  7DF   [8]  02 01 10 00 00 00 00 00
  can0  7E8   [8]  04 41 10 00 00 00 00 00
  can0  7DF   [8]  02 01 11 00 00 00 00 00
  can0  7E8   [8]  03 41 11 00 00 00 00 00
  can0  7DF   [8]  02 01 1F 00 00 00 00 00
  can0  7E8   [8]  04 41 1F 00 00 00 00 00
  can0  7DF   [8]  02 01 21 00 00 00 00 00
  can0  7E8   [8]  04 41 21 00 00 00 00 00
  can0  7DF   [8]  02 01 22 00 00 00 00 00
  can0  7E8   [8]  04 41 22 00 00 00 00 00
  can0  7DF   [8]  02 01 23 00 00 00 00 00
  can0  7E8   [8]  04 41 23 00 00 00 00 00
  can0  7DF   [8]  02 01 2C 00 00 00 00 00
  can0  7E8   [8]  03 41 2C 00 00 00 00 00
  can0  7DF   [8]  02 01 2D 00 00 00 00 00
  can0  7E8   [8]  03 41 2D 00 00 00 00 00
  can0  7DF   [8]  02 01 2F 00 00 00 00 00
  can0  7E8   [8]  03 41 2F 00 00 00 00 00
  can0  7DF   [8]  02 01 31 00 00 00 00 00
  can0  7E8   [8]  04 41 31 00 00 00 00 00
  can0  7DF   [8]  02 01 33 00 00 00 00 00
  can0  7E8   [8]  03 41 33 00 00 00 00 00
  can0  7DF   [8]  02 01 42 00 00 00 00 00
  can0  7E8   [8]  04 41 42 00 00 00 00 00
  can0  7DF   [8]  02 01 43 00 00 00 00 00
  can0  7E8   [8]  04 41 43 00 00 00 00 00
  can0  7DF   [8]  02 01 44 00 00 00 00 00
  can0  7E8   [8]  04 41 44 00 00 00 00 00
  can0  7DF   [8]  02 01 46 00 00 00 00 00
  can0  7E8   [8]  03 41 46 00 00 00 00 00
  can0  7DF   [8]  02 01 47 00 00 00 00 00
  can0  7E8   [8]  03 41 47 00 00 00 00 00
  can0  7DF   [8]  02 01 4D 00 00 00 00 00
  can0  7E8   [8]  04 41 4D 00 00 00 00 00
  can0  7DF   [8]  02 01 4E 00 00 00 00 00
  can0  7E8   [8]  04 41 4E 00 00 00 00 00
  can0  7DF   [8]  02 01 51 00 00 00 00 00
  can0  7E8   [8]  03 41 51 01 00 00 00 00
  can0  7DF   [8]  02 01 52 00 00 00 00 00
  can0  7E8   [8]  03 41 52 00 00 00 00 00
  can0  7DF   [8]  02 01 59 00 00 00 00 00
  can0  7E8   [8]  04 41 59 00 00 00 00 00
  can0  7DF   [8]  02 01 5B 00 00 00 00 00
  can0  7E8   [8]  03 41 5B 00 00 00 00 00
  can0  7DF   [8]  02 01 5C 00 00 00 00 00
  can0  7E8   [8]  03 41 5C 00 00 00 00 00
  can0  7DF   [8]  02 01 5D 00 00 00 00 00
  can0  7E8   [8]  04 41 5D 00 00 00 00 00
  can0  7DF   [8]  02 01 5E 00 00 00 00 00
  can0  7E8   [8]  04 41 5E 00 00 00 00 00
  can0  7DF   [8]  02 01 01 00 00 00 00 00
  can0  7E8   [8]  06 41 01 00 00 07 0F 00
  can0  7DF   [8]  02 01 04 00 00 00 00 00
  can0  7E8   [8]  03 41 04 00 00 00 00 00
  can0  7DF   [8]  02 01 05 00 00 00 00 00
  can0  7E8   [8]  03 41 05 00 00 00 00 00
  can0  7DF   [8]  02 01 06 00 00 00 00 00
  can0  7E8   [8]  04 41 06 00 00 00 00 00
  can0  7DF   [8]  02 01 0A 00 00 00 00 00
  can0  7E8   [8]  03 41 0A 00 00 00 00 00
  can0  7DF   [8]  02 01 0B 00 00 00 00 00
  can0  7E8   [8]  03 41 0B 00 00 00 00 00
  can0  7DF   [8]  02 01 0C 00 00 00 00 00
  can0  7E8   [8]  04 41 0C 13 10 00 00 00
  can0  7DF   [8]  02 01 0D 00 00 00 00 00
  can0  7E8   [8]  03 41 0D 32 00 00 00 00
  can0  7DF   [8]  02 01 0E 00 00 00 00 00
  can0  7E8   [8]  03 41 0E 00 00 00 00 00
  can0  7DF   [8]  02 01 0F 00 00 00 00 00
  can0  7E8   [8]  03 41 0F 00 00 00 00 00
  can0  7DF   [8]  02 01 10 00 00 00 00 00
  can0  7E8   [8]  04 41 10 00 00 00 00 00
  can0  7DF   [8]  02 01 11 00 00 00 00 00
  can0  7E8   [8]  03 41 11 00 00 00 00 00
  can0  7DF   [8]  02 01 1F 00 00 00 00 00
  can0  7E8   [8]  04 41 1F 00 00 00 00 00
  can0  7DF   [8]  02 01 21 00 00 00 00 00
  can0  7E8   [8]  04 41 21 00 00 00 00 00
  can0  7DF   [8]  02 01 22 00 00 00 00 00
  can0  7E8   [8]  04 41 22 00 00 00 00 00
  can0  7DF   [8]  02 01 23 00 00 00 00 00
  can0  7E8   [8]  04 41 23 00 00 00 00 00
  can0  7DF   [8]  02 01 2C 00 00 00 00 00
  can0  7E8   [8]  03 41 2C 00 00 00 00 00
  can0  7DF   [8]  02 01 2D 00 00 00 00 00
  can0  7E8   [8]  03 41 2D 00 00 00 00 00
  can0  7DF   [8]  02 01 2F 00 00 00 00 00
  can0  7E8   [8]  03 41 2F 00 00 00 00 00
  can0  7DF   [8]  02 01 31 00 00 00 00 00
  can0  7E8   [8]  04 41 31 00 00 00 00 00
  can0  7DF   [8]  02 01 33 00 00 00 00 00
  can0  7E8   [8]  03 41 33 00 00 00 00 00
  can0  7DF   [8]  02 01 42 00 00 00 00 00
  can0  7E8   [8]  04 41 42 00 00 00 00 00
  can0  7DF   [8]  02 01 43 00 00 00 00 00
  can0  7E8   [8]  04 41 43 00 00 00 00 00
  can0  7DF   [8]  02 01 44 00 00 00 00 00
  can0  7E8   [8]  04 41 44 00 00 00 00 00
  can0  7DF   [8]  02 01 46 00 00 00 00 00
  can0  7E8   [8]  03 41 46 00 00 00 00 00
  can0  7DF   [8]  02 01 47 00 00 00 00 00
  can0  7E8   [8]  03 41 47 00 00 00 00 00
  can0  7DF   [8]  02 01 4D 00 00 00 00 00
  can0  7E8   [8]  04 41 4D 00 00 00 00 00
  can0  7DF   [8]  02 01 4E 00 00 00 00 00
  can0  7E8   [8]  04 41 4E 00 00 00 00 00
  can0  7DF   [8]  02 01 51 00 00 00 00 00
  can0  7E8   [8]  03 41 51 01 00 00 00 00
  can0  7DF   [8]  02 01 52 00 00 00 00 00
  can0  7E8   [8]  03 41 52 00 00 00 00 00
  can0  7DF   [8]  02 01 59 00 00 00 00 00
  can0  7E8   [8]  04 41 59 00 00 00 00 00
  can0  7DF   [8]  02 01 5B 00 00 00 00 00
